(1690846731.052955) can0 0CC#E33A0F0000000052
(1690846731.054173) can0 062#BE00EA
(1690846731.056243) can0 022#B4FF
(1690846731.062886) can0 029#F000
(1690846731.064560) can0 022#B4FF
(1690846731.070318) can0 0D6#FD1B022A021302
(1690846731.070521) can0 0D7#FE000000000000
(1690846731.071308) can0 01F#F002EA02
(1690846731.071417) can0 020#F0FF
(1690846731.071569) can0 021#F04D00
(1690846731.072843) can0 022#B4FF
(1690846731.080815) can0 062#BE00EA
(1690846731.081170) can0 022#B4FF
(1690846731.086839) can0 0CC#E33A0F0000000052
(1690846731.089506) can0 022#B4FF
(1690846731.096254) can0 01F#F002EA02
(1690846731.096329) can0 020#F0FF
(1690846731.096492) can0 021#F04C00
(1690846731.106195) can0 023#B40200
(1690846731.107414) can0 062#BE0000
(1690846731.115165) can0 0CD#E4CB0052055F001C
(1690846731.118790) can0 0CC#E33A0F0000000051
(1690846731.120407) can0 0D6#FDFF011B02E601
(1690846731.120604) can0 0D7#FE000000000000
(1690846731.121180) can0 01F#F002EA02
(1690846731.121314) can0 020#F0FF
(1690846731.121462) can0 021#F04D00
(1690846731.129033) can0 025#C8FF00
(1690846731.133991) can0 062#BE00EA
(1690846731.146112) can0 01F#F002EA00
(1690846731.146192) can0 020#F0FF
(1690846731.146342) can0 021#F04D00
(1690846731.146594) can0 0C9#AA87056A001700
(1690846731.152923) can0 0CC#E33A0F0000000051
(1690846731.160594) can0 062#BE00EA
(1690846731.170520) can0 0D6#FD2B02D802D601
(1690846731.170704) can0 0D7#FE000000000000
(1690846731.171091) can0 01F#F002EA00
(1690846731.171221) can0 020#F0FF
(1690846731.171368) can0 021#F04D00
(1690846731.186785) can0 0CC#E33A0F0000000051
(1690846731.187196) can0 062#BE00EA
(1690846731.196029) can0 01F#F002EA00
(1690846731.196104) can0 020#F0FF
(1690846731.196260) can0 021#F04C00
(1690846731.213880) can0 062#BE00EA
(1690846731.218761) can0 0CC#E33A0F0000000052
(1690846731.220564) can0 0D6#FD2E028502E601
(1690846731.220694) can0 025#C8FF00
(1690846731.221008) can0 01F#F002EA00
(1690846731.221144) can0 020#F0FF
(1690846731.221291) can0 021#F04D00
(1690846731.240489) can0 063#BE0100
(1690846731.240569) can0 062#BE0000
(1690846731.245893) can0 01E#F00200
(1690846731.246004) can0 01F#F002EA00
(1690846731.246136) can0 020#F0FF
(1690846731.246292) can0 021#F04C00
(1690846731.246990) can0 0CD#E4CE0052055F001C
(1690846731.249051) can0 0D0#DD780500003C0F00
(1690846731.252803) can0 0CC#E33A0F0000000052
(1690846731.254781) can0 0C9#AA87056C000000
(1690846731.261036) can0 0D0#DC78050000D80E00
(1690846731.267116) can0 062#BE00EA
(1690846731.270675) can0 0D6#FD1C026602ED01
(1690846731.270863) can0 0D7#FE000000000000
(1690846731.270993) can0 020#F0FF
(1690846731.271145) can0 021#F04D00
(1690846731.271317) can0 01F#F002EA00
(1690846731.286656) can0 0CC#E33A0F0000000051
(1690846731.293751) can0 062#BE00EA
(1690846731.295868) can0 01F#F002EA00
(1690846731.295972) can0 020#F0FF
(1690846731.296112) can0 021#F04D00
(1690846731.309755) can0 0D8#C86F0E73017901
(1690846731.310015) can0 0D9#C8FFFFFF030000
(1690846731.310157) can0 025#C8FF00
(1690846731.314166) can0 023#B40200
(1690846731.318482) can0 0CC#E33A0F0000000051
(1690846731.320453) can0 062#BE0000
(1690846731.320721) can0 0D6#FD4B02C102FC01
(1690846731.320848) can0 020#F0FF
(1690846731.320984) can0 029#F000
(1690846731.321154) can0 01F#F002EA00
(1690846731.345709) can0 01F#F002EA00
(1690846731.345789) can0 020#F0FF
(1690846731.345939) can0 021#F04D00
(1690846731.347069) can0 062#BE00EA
(1690846731.352465) can0 0CC#E33A0F0000000051
(1690846731.362860) can0 0C9#AA87056C000B00
(1690846731.370768) can0 01F#F002EA00
(1690846731.370845) can0 020#F0FF
(1690846731.371003) can0 021#F04D00
(1690846731.373725) can0 062#BE00EA
(1690846731.381007) can0 0CD#E4CF0052055F001C
(1690846731.386288) can0 0CC#E33A0F0000000052
(1690846731.395612) can0 01F#F002EA00
(1690846731.395693) can0 020#F0FF
(1690846731.395836) can0 021#F04D00
(1690846731.399423) can0 025#C8FF00
(1690846731.400306) can0 062#BE00EA
(1690846731.418326) can0 0CC#E33A0F0000000052
(1690846731.420674) can0 01F#F002EA00
(1690846731.420746) can0 020#F0FF
(1690846731.420910) can0 021#F04D00
(1690846731.421142) can0 0D7#FE000000000000
(1690846731.426980) can0 062#BE00EA
(1690846731.445519) can0 01F#F002EA00
(1690846731.445595) can0 020#F0FF
(1690846731.445742) can0 021#F04D00
(1690846731.446914) can0 063#BE0100
(1690846731.452322) can0 0CC#E33A0F0000000051
(1690846731.453490) can0 062#BE0000
(1690846731.453788) can0 01E#F00200
(1690846731.465306) can0 0D0#DD780500003C0F00
(1690846731.470588) can0 01F#F002EA00
(1690846731.470664) can0 020#F0FF
(1690846731.470829) can0 021#F04D00
(1690846731.471035) can0 0C9#AA87056C000B00
(1690846731.471269) can0 0D7#FE000000000000
(1690846731.477253) can0 0D0#DC78050000D80E00
(1690846731.480112) can0 062#BE00EA
(1690846731.485903) can0 0CC#E30100
(1690846731.486142) can0 0CC#E33A0F0000000051
(1690846731.486750) can0 025#C8FF00
(1690846731.495467) can0 01F#F002EA01
(1690846731.495542) can0 020#F0FF
(1690846731.495697) can0 021#F04D00
(1690846731.506763) can0 062#BE00EA
(1690846731.514637) can0 0CD#E4CF0052055F001D
(1690846731.518144) can0 0CC#E33A0F0000000051
(1690846731.520509) can0 01F#F002EA02
(1690846731.520608) can0 020#F0FF
(1690846731.520761) can0 021#F04D00
(1690846731.521058) can0 0D6#FD1E023902E601
(1690846731.521284) can0 0D7#FE000000000000
(1690846731.522134) can0 023#B40200
(1690846731.529161) can0 064#AA0200
(1690846731.533462) can0 062#BE0000
(1690846731.545372) can0 01F#F002EA01
(1690846731.545451) can0 020#F0FF
(1690846731.545600) can0 021#F04D00
(1690846731.552268) can0 0CC#E33A0F0000000052
(1690846731.560025) can0 062#BE00EA
(1690846731.570282) can0 01F#F002EA01
(1690846731.570357) can0 020#F0FF
(1690846731.570511) can0 021#F04D00
(1690846731.571138) can0 0D6#FD0F0222020402
(1690846731.571366) can0 0D7#FE000000000000
(1690846731.578319) can0 025#C8FF00
(1690846731.578555) can0 029#F000
(1690846731.579224) can0 0C9#AA87056C000000
(1690846731.585928) can0 0CC#E33A0F0000000052
(1690846731.586588) can0 062#BE00EA
(1690846731.595245) can0 01F#F002EA01
(1690846731.595325) can0 020#F0FF
(1690846731.595475) can0 021#F04C00
(1690846731.613263) can0 062#BE00EA
(1690846731.618122) can0 0CC#E33A0F0000000051
(1690846731.620312) can0 01F#F002EA00
(1690846731.620387) can0 020#F0FF
(1690846731.620552) can0 021#F04D00
(1690846731.621227) can0 0D6#FDDB012A02B801
(1690846731.621452) can0 0D7#FE000000000000
(1690846731.639879) can0 062#BE00EA
(1690846731.645244) can0 01F#F002EA00
(1690846731.645321) can0 020#F0FF
(1690846731.645466) can0 021#F04D00
(1690846731.646354) can0 0CD#E4CF0052055F001D
(1690846731.652118) can0 0CC#E33A0F0000000051
(1690846731.653158) can0 063#BE0100
(1690846731.661690) can0 01E#F00200
(1690846731.665682) can0 025#C8FF00
(1690846731.666561) can0 062#BE0000
(1690846731.670153) can0 01F#F002EA00
(1690846731.670257) can0 020#F0FF
(1690846731.670418) can0 021#F04D00
(1690846731.671340) can0 0D6#FDF8010402ED01
(1690846731.671541) can0 0D7#FE000000000000
(1690846731.681749) can0 0D0#DD780500003C0F00
(1690846731.685917) can0 0CC#E33A0F0000000051
(1690846731.687337) can0 0C9#AA87056C000B00
(1690846731.693141) can0 062#BE00EA
(1690846731.693668) can0 0D0#DC78050000D80E00
(1690846731.695128) can0 01F#F002EA00
(1690846731.695240) can0 020#F0FF
(1690846731.695389) can0 021#F04D00
(1690846731.700844) can0 0D8#C8790E73017901
(1690846731.701089) can0 0D9#C8FFFFFF030000
(1690846731.717845) can0 0CC#E33A0F0000000052
(1690846731.719747) can0 062#BE00EA
(1690846731.720075) can0 01F#F002EA00
(1690846731.720198) can0 020#F0FF
(1690846731.720349) can0 021#F04D00
(1690846731.721391) can0 0D6#FD340266020402
(1690846731.721621) can0 0D7#FE000000000000
(1690846731.730160) can0 023#B40200
(1690846731.744963) can0 01F#F002EA00
(1690846731.745038) can0 020#F0FF
(1690846731.745190) can0 021#F04D00
(1690846731.746458) can0 062#BE00EA
(1690846731.751863) can0 0CC#E33A0F0000000052
(1690846731.757219) can0 025#C8FF00
(1690846731.769955) can0 01F#F002EA00
(1690846731.770028) can0 020#F0FF
(1690846731.770188) can0 021#F04D00
(1690846731.771505) can0 0D6#FD2F0239022A02
(1690846731.771711) can0 0D7#FE000000000000
(1690846731.773053) can0 062#BE00EA
(1690846731.780389) can0 0CD#E4CE0052055F001C
(1690846731.785508) can0 0CC#E33A0F0000620014
(1690846731.794857) can0 01F#F002EA00
(1690846731.794935) can0 020#F0FF
(1690846731.795097) can0 021#F04D00
(1690846731.795483) can0 0C9#AA87056C000B00
(1690846731.799725) can0 062#BE00EA
(1690846731.817655) can0 0CC#E33B0F0000000016
(1690846731.819909) can0 01F#F002EA00
(1690846731.820016) can0 020#F0FF
(1690846731.820168) can0 021#F04D00
(1690846731.821593) can0 0D6#FD5F0294024102
(1690846731.821794) can0 0D7#FE000000000000
(1690846731.826360) can0 062#BE00EA
(1690846731.836350) can0 029#F000
(1690846731.844818) can0 01F#F002EA00
(1690846731.844899) can0 020#F0FF
(1690846731.845039) can0 021#F04D00
(1690846731.848742) can0 025#C8FF00
(1690846731.851661) can0 0CC#E33A0F0000000017
(1690846731.852869) can0 062#BE00EA
(1690846731.859534) can0 063#BE0100
(1690846731.869633) can0 01E#F00200
(1690846731.869747) can0 01F#F002EA00
(1690846731.869881) can0 020#F0FF
(1690846731.870031) can0 021#F04D00
(1690846731.871691) can0 0D6#FDFC011B02CF01
(1690846731.871877) can0 0D7#FE000000000000
(1690846731.879611) can0 062#BE00EA
(1690846731.885474) can0 0CC#E33B0F000000001A
(1690846731.894739) can0 01F#F002EA00
(1690846731.894829) can0 020#F0FF
(1690846731.894960) can0 021#F04D00
(1690846731.898253) can0 0D0#DD780500003C0F00
(1690846731.903793) can0 0C9#AA87056A000000
(1690846731.906138) can0 062#BE00EA
(1690846731.910195) can0 0D0#DC78050000D80E00
(1690846731.913910) can0 0CD#E4CF0052055F001C
(1690846731.917455) can0 0CC#E33B0F000000001B
(1690846731.919766) can0 01F#F002EA00
(1690846731.919869) can0 020#F0FF
(1690846731.920016) can0 021#F04D00
(1690846731.921773) can0 0D6#FD5B027D023102
(1690846731.921966) can0 0D7#FE000000000000
(1690846731.927448) can0 06D#DD021F
(1690846731.932795) can0 062#BE00EA
(1690846731.936092) can0 025#C8FF00
(1690846731.938147) can0 023#B40200
(1690846731.939425) can0 06D#DC021F
(1690846731.944643) can0 01F#F002EA00
(1690846731.944744) can0 020#F0FF
(1690846731.944895) can0 021#F04D00
(1690846731.951625) can0 0CC#E33B0F000000001D
(1690846731.959394) can0 062#BE00EA
(1690846731.969510) can0 01F#F002EA00
(1690846731.969607) can0 020#F0FF
(1690846731.969757) can0 021#F04D00
(1690846731.971851) can0 0D6#FD0C022202DE01
(1690846731.972044) can0 0D7#FE000000000000
(1690846731.985335) can0 0CC#E33A0F0000000020
(1690846731.985989) can0 062#BE00EA
(1690846731.994583) can0 01F#F002EA00
(1690846731.994660) can0 020#F0FF
(1690846731.994812) can0 021#F04D00
(1690846732.011861) can0 0C9#AA87056A000B00
(1690846732.012609) can0 062#BE00EA
(1690846732.017467) can0 0CC#E33B0F0000000021
(1690846732.019541) can0 01F#F002EA00
(1690846732.019634) can0 020#F0FF
(1690846732.019795) can0 021#F04C00
(1690846732.021955) can0 0D6#FD0D024102FC01
(1690846732.022131) can0 0D7#FE000000000000
(1690846732.027629) can0 025#C8FF00
(1690846732.039276) can0 062#BE00EA
(1690846732.044537) can0 01F#F002EA00
(1690846732.044617) can0 020#F0FF
(1690846732.044761) can0 021#F04D00
(1690846732.045737) can0 0CD#E4CF0052055F001C
(1690846732.051585) can0 0CC#E33A0F0000000024
(1690846732.065905) can0 063#BE0100
(1690846732.065985) can0 062#BE0000
(1690846732.069436) can0 01F#F002EA00
(1690846732.069508) can0 020#F0FF
(1690846732.069680) can0 021#F04C00
(1690846732.072011) can0 0D6#FD4002AB02ED01
(1690846732.072222) can0 0D7#FE000000000000
(1690846732.077693) can0 01E#F00200
(1690846732.085424) can0 0CC#E33A0F0000000025
(1690846732.087729) can0 0D8#C86F0E73017B01
(1690846732.087978) can0 0D9#C8FFFFFF030000
(1690846732.092524) can0 062#BE0000
(1690846732.094401) can0 01F#F002EA00
(1690846732.094473) can0 029#F000
(1690846732.094629) can0 020#F0FF
(1690846732.094775) can0 021#F04C00
(1690846732.114605) can0 0D0#DD780500003C0F00
(1690846732.114933) can0 025#C8FF00
(1690846732.117152) can0 0CC#E33A0F0000000027
(1690846732.119130) can0 062#BE00EA
(1690846732.119360) can0 01F#F002EA00
(1690846732.119453) can0 020#F0FF
(1690846732.119604) can0 021#F04D00
(1690846732.120144) can0 0C9#AA87056A000B00
(1690846732.122097) can0 0D6#FD200231020B02
(1690846732.122302) can0 0D7#FE000000000000
(1690846732.126581) can0 0D0#DC78050000D80E00
(1690846732.144195) can0 01F#F002EA00
(1690846732.144297) can0 020#F0FF
(1690846732.144449) can0 021#F04D00
(1690846732.145842) can0 062#BE00EA
(1690846732.146087) can0 023#B40200
(1690846732.151202) can0 0CC#E33A0F000000002A
(1690846732.169147) can0 01F#F002EA00
(1690846732.169253) can0 020#F0FF
(1690846732.169406) can0 021#F04D00
(1690846732.172194) can0 0D6#FD3E0248022202
(1690846732.172382) can0 0D7#FE000000000000
(1690846732.172530) can0 062#BE00EA
(1690846732.177371) can0 075#C80200
(1690846732.179785) can0 0CD#E4CF0052055F001D
(1690846732.185036) can0 0CC#E3390F000000002B
(1690846732.194100) can0 01F#F002EA00
(1690846732.194204) can0 020#F0FF
(1690846732.194348) can0 021#F04D00
(1690846732.199119) can0 062#BE00EA
(1690846732.206492) can0 025#C8FF00
(1690846732.216995) can0 0CC#E3380F000000002E
(1690846732.219160) can0 01F#F002EA00
(1690846732.219258) can0 020#F0FF
(1690846732.219414) can0 021#F04D00
(1690846732.222277) can0 0D6#FD0A023102A901
(1690846732.222465) can0 0D7#FE000000000000
(1690846732.225737) can0 062#BE00EA
(1690846732.228260) can0 0C9#AA71056E000000
(1690846732.244013) can0 01F#F002EA00
(1690846732.244091) can0 020#F0FF
(1690846732.244255) can0 021#F04D00
(1690846732.251004) can0 0CC#E3380F000000002F
(1690846732.252248) can0 062#BE00EA
(1690846732.268983) can0 01F#F002EA00
(1690846732.269070) can0 020#F0FF
(1690846732.269219) can0 021#F04D00
(1690846732.272367) can0 0D6#FD0D023102ED01
(1690846732.272485) can0 063#BE0100
(1690846732.278918) can0 062#BE0000
(1690846732.284882) can0 0CC#E3390F0000000031
(1690846732.285603) can0 01E#F00200
(1690846732.293882) can0 025#C8FF00
(1690846732.293967) can0 020#F0FF
(1690846732.294117) can0 021#F04C00
(1690846732.294280) can0 01F#F002EA00
(1690846732.305554) can0 062#BE00EA
(1690846732.313386) can0 0CD#E4CF0053055F001D
(1690846732.316876) can0 0CC#E3390F0000000034
(1690846732.319058) can0 01F#F002EA01
(1690846732.319138) can0 020#F0FF
(1690846732.319284) can0 021#F04D00
(1690846732.322492) can0 0D6#FD41026E021B02
(1690846732.322640) can0 0D7#FE000000000000
(1690846732.331019) can0 0D0#DD780500003C0F00
(1690846732.332147) can0 062#BE00EA
(1690846732.336388) can0 0C9#AA6505DF002800
(1690846732.343015) can0 0D0#DC78050000D80E00
(1690846732.343929) can0 01F#F002EA01
(1690846732.344037) can0 020#F0FF
(1690846732.344190) can0 021#F04D00
(1690846732.350830) can0 0CC#E3390F0000000035
(1690846732.352157) can0 029#F000
(1690846732.354128) can0 023#B40200
(1690846732.358882) can0 062#BE0000
(1690846732.368798) can0 01F#F002EA01
(1690846732.368883) can0 020#F0FF
(1690846732.369016) can0 021#F04D00
(1690846732.372553) can0 0D6#FD3D0257020402
(1690846732.372738) can0 0D7#FE000000000000
(1690846732.384768) can0 0CC#E33A0F0000000038
(1690846732.385561) can0 025#C8FF00
(1690846732.385738) can0 062#BE00EA
(1690846732.393838) can0 01F#F002EA01
(1690846732.393909) can0 020#F0FF
(1690846732.394070) can0 021#F04D00
(1690846732.412037) can0 062#BE00EA
(1690846732.416819) can0 0CC#E3390F0000000039
(1690846732.418803) can0 01F#F002EA00
(1690846732.418908) can0 020#F0FF
(1690846732.419060) can0 021#F04D00
(1690846732.422635) can0 0D6#FD320248021302
(1690846732.422816) can0 0D7#FE000000000000
(1690846732.438671) can0 062#BE00EA
(1690846732.443789) can0 01F#F002EA00
(1690846732.443868) can0 020#F0FF
(1690846732.444018) can0 021#F04D00
(1690846732.444460) can0 0C9#AA720526000D00
(1690846732.445088) can0 0CD#E4CF0052055F001D
(1690846732.450789) can0 0CC#E3390F000000003B
(1690846732.465293) can0 062#BE00EA
(1690846732.468676) can0 01F#F002EA00
(1690846732.468775) can0 020#F0FF
(1690846732.468931) can0 021#F04D00
(1690846732.472719) can0 0D6#FDFC013102DE01
(1690846732.472899) can0 0D7#FE000000000000
(1690846732.474623) can0 0D8#C86F0E72017E01
(1690846732.474877) can0 0D9#C8FFFFFF030000
(1690846732.475017) can0 025#C8FF00
(1690846732.478598) can0 063#BE0100
(1690846732.484467) can0 0CC#E30100
(1690846732.484701) can0 0CC#E3390F000000003E
(1690846732.491918) can0 062#BE0000
(1690846732.493529) can0 01E#F00200
(1690846732.493670) can0 01F#F002EA00
(1690846732.493803) can0 020#F0FF
(1690846732.493953) can0 021#F04D00
(1690846732.516532) can0 0CC#E33A0F000000003F
(1690846732.518535) can0 062#BE00EA
(1690846732.518656) can0 01F#F002EA00
(1690846732.518804) can0 021#F04D00
(1690846732.518938) can0 020#F0FF
(1690846732.522799) can0 0D6#FD0F022202F501
(1690846732.522977) can0 0D7#FE000000000000
(1690846732.535988) can0 064#AA0200
(1690846732.543555) can0 01F#F002EA00
(1690846732.543633) can0 020#F0FF
(1690846732.543794) can0 021#F04D00
(1690846732.545237) can0 062#BE00EA
(1690846732.547242) can0 0D0#DD780500003C0F00
(1690846732.550519) can0 0CC#E3390F0000000042
(1690846732.552633) can0 0C9#AA7C0517000000
(1690846732.559266) can0 0D0#DC78050000D80E00
(1690846732.562143) can0 023#B40200
(1690846732.564291) can0 025#C8FF00
(1690846732.568502) can0 01F#F002EA00
(1690846732.568576) can0 020#F0FF
(1690846732.568750) can0 021#F04C00
(1690846732.571891) can0 062#BE00EA
(1690846732.572866) can0 0D6#FDF8011B02D601
(1690846732.573065) can0 0D7#FE000000000000
(1690846732.579127) can0 0CD#E4CF0052055F001F
(1690846732.584336) can0 0CC#E3390F0000000043
(1690846732.593384) can0 01F#F002EA00
(1690846732.593463) can0 020#F0FF
(1690846732.593612) can0 021#F04D00
(1690846732.598528) can0 062#BE00EA
(1690846732.609908) can0 029#F000
(1690846732.616368) can0 0CC#E33A0F0000000045
(1690846732.618409) can0 01F#F002EA00
(1690846732.618527) can0 020#F0FF
(1690846732.618673) can0 021#F04D00
(1690846732.622972) can0 0D6#FD15025F02CF01
(1690846732.623160) can0 0D7#FE000000000000
(1690846732.625120) can0 062#BE00EA
(1690846732.643282) can0 01F#F002EA00
(1690846732.643360) can0 020#F0FF
(1690846732.643505) can0 021#F04D00
(1690846732.650380) can0 0CC#E33A0F0000000047
(1690846732.651647) can0 062#BE00EA
(1690846732.655803) can0 025#C8FF00
(1690846732.661011) can0 0C9#AA860517000D00
(1690846732.668355) can0 01F#F002EA00
(1690846732.668436) can0 020#F0FF
(1690846732.668579) can0 021#F04D00
(1690846732.673060) can0 0D6#FD2A0241021302
(1690846732.673233) can0 0D7#FE000000000000
(1690846732.678306) can0 062#BE00EA
(1690846732.684154) can0 0CC#E33A0F0000000049
(1690846732.684929) can0 063#BE0100
(1690846732.693347) can0 01F#F002EA00
(1690846732.693422) can0 020#F0FF
(1690846732.693557) can0 021#F04D00
(1690846732.701413) can0 01E#F00200
(1690846732.705011) can0 062#BE0000
(1690846732.712696) can0 0CD#E4CF0052055F001F
(1690846732.716205) can0 0CC#E33A0F000000004C
(1690846732.718242) can0 01F#F002EA00
(1690846732.718340) can0 020#F0FF
(1690846732.718489) can0 021#F04D00
(1690846732.723148) can0 0D6#FD28026E02F501
(1690846732.723329) can0 0D7#FE000000000000
(1690846732.731562) can0 062#BE00EA
(1690846732.743144) can0 01F#F002EA00
(1690846732.743223) can0 020#F0FF
(1690846732.743373) can0 021#F04D00
(1690846732.743518) can0 025#C8FF00
(1690846732.750198) can0 0CC#E33A0F000000004D
(1690846732.758183) can0 062#BE00EA
(1690846732.763733) can0 0D0#DD780500003C0F00
(1690846732.768198) can0 01F#F002EA01
(1690846732.768275) can0 020#F0FF
(1690846732.768437) can0 021#F04D00
(1690846732.769069) can0 0C9#AA8E0517000D00
(1690846732.770082) can0 023#B40200
(1690846732.773215) can0 0D6#FD16023902ED01
(1690846732.773403) can0 0D7#FE000000000000
(1690846732.775748) can0 0D0#DC78050000D80E00
(1690846732.784005) can0 0CC#E33A0F000000004F
(1690846732.784776) can0 062#BE0000
(1690846732.793137) can0 01F#F002EA01
(1690846732.793214) can0 020#F0FF
(1690846732.793368) can0 021#F04D00
(1690846732.811420) can0 062#BE00EA
(1690846732.816165) can0 0CC#E33B0F0000000051
(1690846732.818069) can0 01F#F002EA00
(1690846732.818171) can0 020#F0FF
(1690846732.818315) can0 021#F04D00
(1690846732.823322) can0 0D6#FD0E0222020402
(1690846732.823492) can0 0D7#FE000000000000
(1690846732.834703) can0 025#C8FF00
(1690846732.838054) can0 062#BE00EA
(1690846732.843041) can0 01F#F002EA00
(1690846732.843115) can0 020#F0FF
(1690846732.843273) can0 021#F04C00
(1690846732.844206) can0 0CD#E40100
(1690846732.844528) can0 0CD#E4CF0052055F001F
(1690846732.850155) can0 0CC#E33A0F0000000053
(1690846732.864690) can0 062#BE00EA
(1690846732.865660) can0 0D8#C8790E70017B01
(1690846732.865926) can0 0D9#C8FFFFFF030000
(1690846732.867977) can0 01F#F002EA00
(1690846732.868048) can0 029#F000
(1690846732.868215) can0 020#F0FF
(1690846732.868352) can0 021#F04D00
(1690846732.873410) can0 0D6#FD02022202D601
(1690846732.873599) can0 0D7#FE000000000000
(1690846732.877161) can0 0C9#AA930517000000
(1690846732.883973) can0 0CC#E33A0F0000000056
(1690846732.891315) can0 063#BE0100
(1690846732.891397) can0 062#BE0000
(1690846732.892890) can0 01F#F002EA00
(1690846732.892982) can0 020#F0FF
(1690846732.893137) can0 021#F04D00
(1690846732.909377) can0 01E#F00200
(1690846732.915917) can0 0CC#E33B0F0000000057
(1690846732.917852) can0 01F#F002EA00
(1690846732.917955) can0 020#F0FF
(1690846732.918112) can0 021#F04C00
(1690846732.918264) can0 062#BE0000
(1690846732.922066) can0 025#C8FF00
(1690846732.923465) can0 0D6#FD04022A02B801
(1690846732.923671) can0 0D7#FE000000000000
(1690846732.942718) can0 01F#F002EA00
(1690846732.942794) can0 020#F0FF
(1690846732.942949) can0 021#F04D00
(1690846732.944650) can0 062#BE00EA
(1690846732.949919) can0 0CC#E33A0F0000000059
(1690846732.967678) can0 01F#F002EA00
(1690846732.967758) can0 020#F0FF
(1690846732.967908) can0 021#F04C00
(1690846732.971282) can0 062#BE00EA
(1690846732.973551) can0 0D6#FD0E022202FC01
(1690846732.973755) can0 0D7#FE000000000000
(1690846732.978101) can0 023#B40200
(1690846732.978540) can0 0CD#E4CE0052055F001D
(1690846732.980079) can0 0D0#DD780500003C0F00
(1690846732.983649) can0 0CC#E33A0F000000005B
(1690846732.985356) can0 0C9#AA960517000D00
(1690846732.992156) can0 0D0#DC78050000D80E00
(1690846732.992725) can0 01F#F002EA00
(1690846732.992858) can0 020#F0FF
(1690846732.993011) can0 021#F04D00
(1690846732.997918) can0 062#BE00EA
(1690846733.013576) can0 025#C8FF00
(1690846733.015773) can0 0CC#E33B0F000000005D
(1690846733.017746) can0 01F#F002EA00
(1690846733.017882) can0 020#F0FF
(1690846733.017933) can0 021#F04D00
(1690846733.023686) can0 0D6#FDDF010402B801
(1690846733.023841) can0 0D7#FE000000000000
(1690846733.024512) can0 062#BE00EA
(1690846733.042552) can0 01F#F002EA00
(1690846733.042640) can0 020#F0FF
(1690846733.042774) can0 021#F04D00
(1690846733.049745) can0 0CC#E33B0F000000005E
(1690846733.051058) can0 062#BE00EA
(1690846733.067507) can0 01F#F002EA00
(1690846733.067591) can0 020#F0FF
(1690846733.067725) can0 021#F04D00
(1690846733.073747) can0 0D6#FD03021302ED01
(1690846733.073936) can0 0D7#FE000000000000
(1690846733.077696) can0 062#BE00EA
(1690846733.083570) can0 0CC#E33B0F000000005D
(1690846733.092444) can0 01F#F002EA00
(1690846733.092521) can0 020#F0FF
(1690846733.092668) can0 021#F04D00
(1690846733.093578) can0 0C9#AA970517001A00
(1690846733.097770) can0 063#BE0100
(1690846733.100949) can0 025#C8FF00
(1690846733.104327) can0 062#BE0000
(1690846733.112105) can0 0CD#E4CF0052055F001D
(1690846733.115565) can0 0CC#E33A0F000000005B
(1690846733.117438) can0 01E#F00200
(1690846733.117551) can0 01F#F002EA00
(1690846733.117680) can0 020#F0FF
(1690846733.117831) can0 021#F04D00
(1690846733.123831) can0 0D6#FD22025002F501
(1690846733.124014) can0 0D7#FE000000000000
(1690846733.125731) can0 029#F000
(1690846733.131042) can0 062#BE00EA
(1690846733.142412) can0 01F#F002EA00
(1690846733.142492) can0 020#F0FF
(1690846733.142710) can0 021#F04D00
(1690846733.149616) can0 0CC#E33B0F0000000059
(1690846733.157570) can0 062#BE00EA
(1690846733.167313) can0 01F#F002EA00
(1690846733.167398) can0 020#F0FF
(1690846733.167541) can0 021#F04D00
(1690846733.173918) can0 0D6#FD11023902ED01
(1690846733.174097) can0 0D7#FE000000000000
(1690846733.183391) can0 0CC#E33A0F0000000057
(1690846733.184152) can0 062#BE00EA
(1690846733.186085) can0 023#B40200
(1690846733.192376) can0 01F#F002EA01
(1690846733.192451) can0 020#F0FF
(1690846733.192612) can0 021#F04D00
(1690846733.192760) can0 025#C8FF00
(1690846733.196530) can0 0D0#DD780500003C0F00
(1690846733.197554) can0 024#BE00
(1690846733.206206) can0 022#B400
(1690846733.208556) can0 0D0#DC78050000D80E00
(1690846733.208751) can0 0C9#AA950517000D00
(1690846733.211032) can0 022#B4FF
(1690846733.215513) can0 0CC#E33B0F0000000056
(1690846733.217294) can0 01F#F002EA01
(1690846733.217413) can0 020#F0FF
(1690846733.217554) can0 021#F04D00
(1690846733.217709) can0 062#BE0000
(1690846733.219360) can0 022#B4FF
(1690846733.223992) can0 0D6#FDF6012202C001
(1690846733.224173) can0 0D7#FE000000000000
(1690846733.227681) can0 022#B4FF
(1690846733.236003) can0 022#B4FF
(1690846733.242239) can0 01F#F002EA01
(1690846733.242313) can0 020#F0FF
(1690846733.242480) can0 021#F04D00
(1690846733.243836) can0 0CD#E4CF0052055F001D
(1690846733.244147) can0 062#BE00EA
(1690846733.244285) can0 022#B4FF
(1690846733.249516) can0 0CC#E33A0F0000000053
(1690846733.252578) can0 0D8#C8830E73017B01
(1690846733.252648) can0 022#B4FF
(1690846733.252894) can0 0D9#C8FFFFFF030000
(1690846733.260959) can0 022#B4FF
(1690846733.267196) can0 01F#F002EA01
(1690846733.267270) can0 020#F0FF
(1690846733.267435) can0 021#F04C00
(1690846733.269270) can0 022#B4FF
(1690846733.270793) can0 062#BE00EA
(1690846733.274076) can0 0D6#FD2E0250021B02
(1690846733.274251) can0 0D7#FE000000000000
(1690846733.277592) can0 022#B4FF
(1690846733.283322) can0 0CC#E33A0F0000000051
(1690846733.283961) can0 025#C8FF00
(1690846733.285903) can0 022#B4FF
(1690846733.292195) can0 01F#F002EA00
(1690846733.292266) can0 020#F0FF
(1690846733.292433) can0 021#F04D00
(1690846733.294232) can0 022#B4FF
(1690846733.297445) can0 062#BE00EA
(1690846733.302560) can0 022#B4FF
(1690846733.309834) can0 0C9#AA920517000D00
(1690846733.310624) can0 063#BE0100
(1690846733.310912) can0 022#B4FF
(1690846733.315290) can0 0CC#E33B0F000000004F
(1690846733.317102) can0 01F#F002EA00
(1690846733.317203) can0 020#F0FF
(1690846733.317359) can0 021#F04C00
(1690846733.319188) can0 022#B4FF
(1690846733.324078) can0 062#BE00EA
(1690846733.324254) can0 0D6#FD18025F02E601
(1690846733.324482) can0 0D7#FE000000000000
(1690846733.325297) can0 01E#F00200
(1690846733.327488) can0 022#B4FF
(1690846733.335840) can0 022#B4FF
(1690846733.342052) can0 01F#F002EA00
(1690846733.342123) can0 020#F0FF
(1690846733.342288) can0 021#F04C00
(1690846733.344121) can0 022#B4FF
(1690846733.349382) can0 0CC#E33A0F000000004D
(1690846733.350657) can0 062#BE00EA
(1690846733.352469) can0 022#B4FF
(1690846733.360790) can0 022#B4FF
(1690846733.367014) can0 01F#F002EA00
(1690846733.367093) can0 020#F0FF
(1690846733.367247) can0 021#F04D00
(1690846733.369104) can0 022#B4FF
(1690846733.371338) can0 025#C8FF00
(1690846733.374237) can0 0D6#FD12023102FC01
(1690846733.374419) can0 0D7#FE000000000000
(1690846733.377317) can0 062#BE00EA
(1690846733.377386) can0 022#B4FF
(1690846733.377807) can0 0CD#E4CF0052055F001F
(1690846733.383030) can0 0CC#E33A0F000000004A
(1690846733.383513) can0 029#F000
(1690846733.385741) can0 022#B4FF
(1690846733.391965) can0 01F#F002EA00
(1690846733.392040) can0 020#F0FF
(1690846733.392201) can0 021#F04D00
(1690846733.394063) can0 023#B40200
(1690846733.394176) can0 022#B4FF
(1690846733.402396) can0 022#B4FF
(1690846733.403934) can0 062#BE0000
(1690846733.410723) can0 022#B4FF
(1690846733.412722) can0 0D0#DD780500003C0F00
(1690846733.415070) can0 0CC#E33A0F0000000049
(1690846733.416897) can0 01F#F002EA00
(1690846733.416996) can0 020#F0FF
(1690846733.417147) can0 021#F04D00
(1690846733.418063) can0 0C9#AA8E0517000D00
(1690846733.419010) can0 022#B4FF
(1690846733.424320) can0 0D6#FD2B025F020402
(1690846733.424498) can0 0D7#FE000000000000
(1690846733.424767) can0 0D0#DC78050000D80E00
(1690846733.427343) can0 022#B4FF
(1690846733.430564) can0 062#BE00EA
(1690846733.435682) can0 022#B4FF
(1690846733.441866) can0 01F#F002EA00
(1690846733.441939) can0 020#F0FF
(1690846733.442101) can0 021#F04D00
(1690846733.443984) can0 022#B4FF
(1690846733.449047) can0 0CC#E33A0F0000000047
(1690846733.452308) can0 022#B4FF
(1690846733.457200) can0 062#BE00EA
(1690846733.460620) can0 022#B4FF
(1690846733.462880) can0 025#C8FF00
(1690846733.466814) can0 01F#F002EA00
(1690846733.466885) can0 020#F0FF
(1690846733.467053) can0 021#F04D00
(1690846733.468909) can0 022#B4FF
(1690846733.474398) can0 0D6#FD0F022202ED01
(1690846733.474581) can0 0D7#FE000000000000
(1690846733.477268) can0 022#B4FF
(1690846733.482644) can0 0CC#E30100
(1690846733.482871) can0 0CC#E33A0F0000000045
(1690846733.483783) can0 062#BE00EA
(1690846733.485592) can0 022#B4FF
(1690846733.491787) can0 01F#F002EA00
(1690846733.491866) can0 020#F0FF
(1690846733.492023) can0 021#F04D00
(1690846733.493899) can0 022#B4FF
(1690846733.502236) can0 022#B4FF
(1690846733.510362) can0 062#BE00EA
(1690846733.510498) can0 022#B4FF
(1690846733.511522) can0 0CD#E4CF0052055F001F
(1690846733.514901) can0 0CC#E33B0F0000000043
(1690846733.516723) can0 01F#F002EA00
(1690846733.516821) can0 020#F0FF
(1690846733.516979) can0 021#F04D00
(1690846733.517128) can0 063#BE0100
(1690846733.518953) can0 022#B4FF
(1690846733.524490) can0 0D6#FDE9010B02C001
(1690846733.524672) can0 0D7#FE000000000000
(1690846733.526303) can0 0C9#AA8A0517000D00
(1690846733.527143) can0 022#B4FF
(1690846733.533316) can0 01E#F00200
(1690846733.535495) can0 022#B4FF
(1690846733.537058) can0 062#BE0000
(1690846733.541686) can0 01F#F002EA00
(1690846733.541759) can0 020#F0FF
(1690846733.541926) can0 021#F04D00
(1690846733.542777) can0 064#AA0200
(1690846733.543787) can0 022#B4FF
(1690846733.548901) can0 0CC#E33B0F0000000042
(1690846733.550235) can0 025#C8FF00
(1690846733.552121) can0 022#B4FF
(1690846733.560468) can0 022#B4FF
(1690846733.563689) can0 062#BE00EA
(1690846733.566681) can0 01F#F002EA00
(1690846733.566756) can0 020#F0FF
(1690846733.566921) can0 021#F04D00
(1690846733.568787) can0 022#B4FF
(1690846733.574571) can0 0D6#FDFB010402ED01
(1690846733.574747) can0 0D7#FE000000000000
(1690846733.577110) can0 022#B4FF
(1690846733.582718) can0 0CC#E33B0F000000003F
(1690846733.585431) can0 022#B4FF
(1690846733.590322) can0 062#BE00EA
(1690846733.591553) can0 01F#F002EA00
(1690846733.591672) can0 020#F0FF
(1690846733.591815) can0 021#F04D00
(1690846733.593744) can0 022#B4FF
(1690846733.602089) can0 023#B40200
(1690846733.602166) can0 022#B4FF
(1690846733.610389) can0 022#B4FF
(1690846733.614517) can0 0D8#C8830E71017B01
(1690846733.614721) can0 0CC#E33B0F000000003D
(1690846733.614944) can0 0D9#C8FFFFFF030000
(1690846733.615093) can0 025#C8FF00
(1690846733.616517) can0 01F#F002EA00
(1690846733.616621) can0 020#F0FF
(1690846733.616770) can0 021#F04D00
(1690846733.616921) can0 062#BE00EA
(1690846733.618675) can0 022#B4FF
(1690846733.624653) can0 0D6#FD340250021B02
(1690846733.624840) can0 0D7#FE000000000000
(1690846733.629258) can0 0D0#DD780500003C0F00
(1690846733.634318) can0 0C9#AA850517000000
(1690846733.641330) can0 0D0#DC78050000D80E00
(1690846733.641495) can0 01F#F002EA00
(1690846733.641608) can0 020#F0FF
(1690846733.641748) can0 029#F000
(1690846733.641892) can0 021#F04D00
(1690846733.643199) can0 0CD#E4CF0052055F001D
(1690846733.643538) can0 062#BE00EA
(1690846733.648867) can0 0CC#E33B0F000000003B
(1690846733.666380) can0 01F#F002EA00
(1690846733.666472) can0 020#F0FF
(1690846733.666610) can0 021#F04D00
(1690846733.670215) can0 062#BE00EA
(1690846733.674747) can0 0D6#FDF4014102A901
(1690846733.674932) can0 0D7#FE000000000000
(1690846733.682664) can0 0CC#E33B0F0000000039
(1690846733.691377) can0 01F#F002EA00
(1690846733.691456) can0 020#F0FF
(1690846733.691601) can0 021#F04D00
(1690846733.696854) can0 062#BE00EA
(1690846733.699986) can0 025#C8FF00
(1690846733.714673) can0 0CC#E33A0F0000000038
(1690846733.716424) can0 01F#F002EA01
(1690846733.716523) can0 020#F0FF
(1690846733.716668) can0 021#F04D00
(1690846733.723383) can0 063#BE0100
(1690846733.723463) can0 062#BE0000
(1690846733.724787) can0 0D6#FD08023902D601
(1690846733.724999) can0 0D7#FE000000000000
(1690846733.741143) can0 01E#F00200
(1690846733.741257) can0 01F#F002EA01
(1690846733.741387) can0 020#F0FF
(1690846733.741543) can0 021#F04D00
(1690846733.742559) can0 0C9#AA820517000D00
(1690846733.748658) can0 0CC#E33A0F0000000035
(1690846733.750057) can0 062#BE00EA
(1690846733.766221) can0 01F#F002EA01
(1690846733.766306) can0 020#F0FF
(1690846733.766462) can0 021#F04C00
(1690846733.774908) can0 0D6#FDFD010402ED01
(1690846733.775080) can0 0D7#FE000000000000
(1690846733.776599) can0 062#BE00EA
(1690846733.777166) can0 0CD#E4CF0052055F001D
(1690846733.782467) can0 0CC#E33A0F0000000033
(1690846733.791191) can0 01F#F002EA01
(1690846733.791292) can0 020#F0FF
(1690846733.791380) can0 021#F04D00
(1690846733.791541) can0 025#C8FF00
(1690846733.803266) can0 062#BE00EA
(1690846733.810082) can0 023#B40200
(1690846733.814421) can0 0CC#E33B0F0000000031
(1690846733.816180) can0 01F#F002EA01
(1690846733.816254) can0 020#F0FF
(1690846733.816422) can0 021#F04D00
(1690846733.824985) can0 0D6#FDFB013102C701
(1690846733.825175) can0 0D7#FE000000000000
(1690846733.829882) can0 062#BE0000
(1690846733.841060) can0 01F#F002EA01
(1690846733.841149) can0 020#F0FF
(1690846733.841283) can0 021#F04D00
(1690846733.845620) can0 0D0#DD780500003C0F00
(1690846733.848439) can0 0CC#E33A0F000000002F
(1690846733.850846) can0 0C9#AA800517000D00
(1690846733.856518) can0 062#BE00EA
(1690846733.857710) can0 0D0#DC78050000D80E00
(1690846733.866118) can0 01F#F002EA01
(1690846733.866195) can0 020#F0FF
(1690846733.866348) can0 021#F04D00
(1690846733.875069) can0 0D6#FDEC011B02C701
(1690846733.875254) can0 0D7#FE000000000000
(1690846733.878907) can0 025#C8FF00
(1690846733.882229) can0 0CC#E33A0F000000002E
(1690846733.883127) can0 062#BE00EA
(1690846733.891042) can0 01F#F002EA01
(1690846733.891120) can0 020#F0FF
(1690846733.891268) can0 021#F04D00
(1690846733.899176) can0 029#F000
(1690846733.909772) can0 062#BE00EA
(1690846733.910878) can0 0CD#E4CF0052055F001D
(1690846733.914314) can0 0CC#E33A0F000000002B
(1690846733.915986) can0 01F#F002EA01
(1690846733.916115) can0 020#F0FF
(1690846733.916268) can0 021#F04D00
(1690846733.925315) can0 0D6#FD5D029402CF01
(1690846733.925514) can0 0D7#FE000000000000
(1690846733.929706) can0 063#BE0100
(1690846733.936393) can0 062#BE0000
(1690846733.940956) can0 01F#F002EA01
(1690846733.941031) can0 020#F0FF
(1690846733.941184) can0 021#F04D00
(1690846733.948274) can0 0CC#E33A0F0000000029
(1690846733.949186) can0 01E#F00200
(1690846733.958819) can0 0C9#AA7F0517000000
(1690846733.963016) can0 062#BE0000
(1690846733.965952) can0 01F#F002EA00
(1690846733.966050) can0 020#F0FF
(1690846733.966194) can0 021#F04D00
(1690846733.970429) can0 025#C8FF00
(1690846733.975233) can0 0D6#FD16025702FC01
(1690846733.975419) can0 0D7#FE000000000000
(1690846733.982113) can0 0CC#E33A0F0000000027
(1690846733.989635) can0 062#BE00EA
(1690846733.990849) can0 01F#F002EA00
(1690846733.990922) can0 020#F0FF
(1690846733.991094) can0 021#F04D00
(1690846733.998689) can0 06D#DD021F
(1690846734.001393) can0 0D8#C8790E73017B01
(1690846734.001659) can0 0D9#C8FFFFFF030000
(1690846734.010780) can0 06D#DC021F
(1690846734.014061) can0 0CC#E33B0F0000000025
(1690846734.015780) can0 01F#F002EA00
(1690846734.015875) can0 020#F0FF
(1690846734.016036) can0 021#F04D00
(1690846734.016299) can0 062#BE00EA
(1690846734.018027) can0 023#B40200
(1690846734.025323) can0 0D6#FD05021302FC01
(1690846734.025508) can0 0D7#FE000000000000
(1690846734.040664) can0 01F#F002EA00
(1690846734.040736) can0 020#F0FF
(1690846734.040902) can0 021#F04D00
(1690846734.042587) can0 0CD#E4CF0052055F001F
(1690846734.042930) can0 062#BE00EA
(1690846734.048216) can0 0CC#E33A0F0000000024
(1690846734.061963) can0 025#C8FF00
(1690846734.062157) can0 0D0#DD780500003C0F00
(1690846734.065701) can0 01F#F002EA00
(1690846734.065799) can0 020#F0FF
(1690846734.065951) can0 021#F04D00
(1690846734.067101) can0 0C9#AA7F0517000D00
(1690846734.069590) can0 062#BE00EA
(1690846734.074151) can0 0D0#DC78050000D80E00
(1690846734.075370) can0 0D6#FD0E021B020402
(1690846734.075586) can0 0D7#FE000000000000
(1690846734.082036) can0 0CC#E33A0F0000000021
(1690846734.090581) can0 01F#F002EA00
(1690846734.090657) can0 020#F0FF
(1690846734.090816) can0 021#F04C00
(1690846734.096244) can0 062#BE00EA
(1690846734.114224) can0 0CC#E33A0F0000000020
(1690846734.115677) can0 01F#F002EA00
(1690846734.115774) can0 020#F0FF
(1690846734.115920) can0 021#F04C00
(1690846734.122775) can0 062#BE00EA
(1690846734.125486) can0 0D6#FD0F024102CF01
(1690846734.125676) can0 0D7#FE000000000000
(1690846734.136086) can0 063#BE0100
(1690846734.140576) can0 01F#F002EA00
(1690846734.140650) can0 020#F0FF
(1690846734.140819) can0 021#F04C00
(1690846734.148042) can0 0CC#E33A0F000000001D
(1690846734.149333) can0 025#C8FF00
(1690846734.149401) can0 062#BE00EA
(1690846734.157126) can0 01E#F00200
(1690846734.157203) can0 029#F000
(1690846734.165426) can0 01F#F002EA00
(1690846734.165500) can0 020#F0FF
(1690846734.165673) can0 021#F04C00
(1690846734.175162) can0 0C9#AA810517000D00
(1690846734.175534) can0 0D6#FD45026E022A02
(1690846734.175760) can0 0D7#FE000000000000
(1690846734.175961) can0 062#BE00EA
(1690846734.176375) can0 0CD#E4CF0052055F001F
(1690846734.181803) can0 0CC#E33A0F000000001B
(1690846734.190387) can0 01F#F002EA00
(1690846734.190462) can0 020#F0FF
(1690846734.190620) can0 021#F04D00
(1690846734.202651) can0 062#BE00EA
(1690846734.213793) can0 0CC#E33A0F000000001A
(1690846734.215447) can0 01F#F002EA00
(1690846734.215546) can0 020#F0FF
(1690846734.215694) can0 021#F04D00
(1690846734.225684) can0 0D6#FD19023902F501
(1690846734.225855) can0 0D7#FE000000000000
(1690846734.226005) can0 023#B40200
(1690846734.229368) can0 062#BE0000
(1690846734.240298) can0 01F#F002EA00
(1690846734.240377) can0 020#F0FF
(1690846734.240532) can0 021#F04D00
(1690846734.240803) can0 025#C8FF00
(1690846734.247765) can0 0CC#E33B0F0000000017
(1690846734.255907) can0 062#BE00EA
(1690846734.265249) can0 01F#F002EA00
(1690846734.265324) can0 020#F0FF
(1690846734.265491) can0 021#F04D00
(1690846734.275761) can0 0D6#FD0F024802CF01
(1690846734.275933) can0 0D7#FE000000000000
(1690846734.278259) can0 0D0#DD780500003C0F00
(1690846734.281578) can0 0CC#E33A0F0000000016
(1690846734.282484) can0 062#BE00EA
(1690846734.283259) can0 0C9#AA820517000000
(1690846734.290281) can0 01F#F002EA00
(1690846734.290359) can0 020#F0FF
(1690846734.290521) can0 021#F04D00
(1690846734.290762) can0 0D0#DC78050000D80E00
(1690846734.309155) can0 062#BE00EA
(1690846734.310434) can0 0CD#E4CF0052055F001F
(1690846734.313597) can0 0CC#E33B0F0000000014
(1690846734.315214) can0 01F#F002EA00
(1690846734.315319) can0 020#F0FF
(1690846734.315469) can0 021#F04D00
(1690846734.325851) can0 0D6#FD06023902CF01
(1690846734.326030) can0 0D7#FE000000000000
(1690846734.328188) can0 025#C8FF00
(1690846734.335776) can0 062#BE00EA
(1690846734.340195) can0 01F#F002EA00
(1690846734.340267) can0 020#F0FF
(1690846734.340430) can0 021#F04D00
(1690846734.342528) can0 063#BE0100
(1690846734.347041) can0 0CC#E33A0F0000800014
(1690846734.362406) can0 062#BE0000
(1690846734.365075) can0 01E#F00200
(1690846734.365193) can0 01F#F002EA00
(1690846734.365323) can0 020#F0FF
(1690846734.365480) can0 021#F04D00
(1690846734.375935) can0 0D6#FD56027D021302
(1690846734.376123) can0 0D7#FE000000000000
(1690846734.382251) can0 0CC#E33B0F0000B20016
(1690846734.389039) can0 062#BE00EA
(1690846734.390113) can0 01F#F002EA00
(1690846734.390213) can0 020#F0FF
(1690846734.390369) can0 021#F04D00
(1690846734.391739) can0 0C9#AA840510000D00
(1690846734.392431) can0 0D8#C8790E73017B01
(1690846734.392717) can0 0D9#C8FFFFFF030000
(1690846734.413984) can0 0CC#E33A0F00005E0017
(1690846734.415070) can0 01F#F002EA00
(1690846734.415172) can0 020#F0FF
(1690846734.415311) can0 029#F000
(1690846734.415456) can0 021#F04D00
(1690846734.415693) can0 062#BE00EA
(1690846734.419734) can0 025#C8FF00
(1690846734.426014) can0 0D6#FD450257021B02
(1690846734.426196) can0 0D7#FE000000000000
(1690846734.434059) can0 023#B40200
(1690846734.440006) can0 01F#F002EA00
(1690846734.440082) can0 020#F0FF
(1690846734.440247) can0 021#F04D00
(1690846734.441958) can0 0CD#E4CF0052055F0020
(1690846734.442327) can0 062#BE00EA
(1690846734.446874) can0 0CC#E33B0F0000BD001A
(1690846734.464885) can0 01F#F002EA00
(1690846734.464962) can0 020#F0FF
(1690846734.465106) can0 021#F04D00
(1690846734.469010) can0 062#BE00EA
(1690846734.476103) can0 0D6#FD1A024102ED01
(1690846734.476287) can0 0D7#FE000000000000
(1690846734.480503) can0 0CC#E30100
(1690846734.480908) can0 0CC#E33A0F000059001B
(1690846734.489824) can0 01F#F002EA00
(1690846734.489898) can0 020#F0FF
(1690846734.490055) can0 021#F04D00
(1690846734.494793) can0 0D0#DD780500003C0F00
(1690846734.495595) can0 062#BE00EA
(1690846734.499657) can0 0C9#AA850500000C00
(1690846734.506920) can0 0D0#DC78050000D80E00
(1690846734.507055) can0 025#C8FF00
(1690846734.513703) can0 0CC#E33A0F0000BE001D
(1690846734.514928) can0 01F#F002EA01
(1690846734.515024) can0 020#F0FF
(1690846734.515181) can0 021#F04D00
(1690846734.522168) can0 062#BE00EA
(1690846734.526180) can0 0D6#FD280241021302
(1690846734.526364) can0 0D7#FE000000000000
(1690846734.539742) can0 01F#F002EA01
(1690846734.539819) can0 020#F0FF
(1690846734.539987) can0 021#F04D00
(1690846734.546578) can0 0CC#E33B0F00005C001F
(1690846734.548782) can0 063#BE0100
(1690846734.548890) can0 062#BE0000
(1690846734.549351) can0 064#AA0200
(1690846734.564731) can0 01F#F002EA01
(1690846734.564810) can0 020#F0FF
(1690846734.564966) can0 021#F04D00
(1690846734.572983) can0 01E#F00200
(1690846734.575520) can0 062#BE0000
(1690846734.575776) can0 0CD#E4CF0052055F0020
(1690846734.576200) can0 0D6#FD12024802ED01
(1690846734.576426) can0 0D7#FE000000000000
(1690846734.581942) can0 0CC#E33A0F0000AD0021
(1690846734.589771) can0 01F#F002EA01
(1690846734.589852) can0 020#F0FF
(1690846734.590009) can0 021#F04D00
(1690846734.598638) can0 025#C8FF00
(1690846734.602040) can0 062#BE00EA
(1690846734.607821) can0 0C9#AA8705FA000000
(1690846734.614428) can0 0CC#E33A0F00005B0022
(1690846734.614672) can0 01F#F002EA01
(1690846734.614793) can0 020#F0FF
(1690846734.614945) can0 021#F04D00
(1690846734.626344) can0 0D6#FDE7010B02C701
(1690846734.626528) can0 0D7#FE000000000000
(1690846734.628670) can0 062#BE00EA
(1690846734.639563) can0 01F#F002EA01
(1690846734.639645) can0 020#F0FF
(1690846734.639791) can0 021#F04D00
(1690846734.642049) can0 023#B40200
(1690846734.646431) can0 0CC#E33A0F0000C40025
(1690846734.655299) can0 062#BE0000
(1690846734.664511) can0 01F#F002EA01
(1690846734.664600) can0 020#F0FF
(1690846734.664746) can0 021#F04D00
(1690846734.672748) can0 029#F000
(1690846734.676423) can0 0D6#FD0B022202E601
(1690846734.676597) can0 0D7#FE000000000000
(1690846734.680425) can0 0CC#E33A0F0000590026
(1690846734.681929) can0 062#BE00EA
(1690846734.686006) can0 025#C8FF00
(1690846734.689554) can0 01F#F002EA01
(1690846734.689633) can0 020#F0FF
(1690846734.689781) can0 021#F04D00
(1690846734.708712) can0 062#BE00EA
(1690846734.709713) can0 0CD#E4D00052055F001F
(1690846734.711224) can0 0D0#DD780500003C0F00
(1690846734.713335) can0 0CC#E33A0F0000BE0029
(1690846734.714464) can0 01F#F002EA01
(1690846734.714583) can0 020#F0FF
(1690846734.714727) can0 021#F04D00
(1690846734.716098) can0 0C9#AA8905FA000C00
(1690846734.723273) can0 0D0#DC78050000D80E00
(1690846734.726491) can0 0D6#FD2E027602D601
(1690846734.726681) can0 0D7#FE000000000000
(1690846734.735177) can0 062#BE00EA
(1690846734.739453) can0 01F#F002EA01
(1690846734.739524) can0 020#F0FF
(1690846734.739695) can0 021#F04D00
(1690846734.746274) can0 0CC#E33A0F00005B002A
(1690846734.755146) can0 063#BE0100
(1690846734.761798) can0 062#BE0000
(1690846734.764407) can0 01F#F002EA01
(1690846734.764476) can0 020#F0FF
(1690846734.764655) can0 021#F04D00
(1690846734.776602) can0 0D6#FD06022202E601
(1690846734.776785) can0 0D7#FE000000000000
(1690846734.779373) can0 0D8#C8790E73017B01
(1690846734.779616) can0 0D9#C8FFFFFF030000
(1690846734.779758) can0 025#C8FF00
(1690846734.780314) can0 0CC#E3390F0000B2002C
(1690846734.780940) can0 01E#F00200
(1690846734.788428) can0 062#BE0000
(1690846734.789352) can0 01F#F002EA01
(1690846734.789441) can0 020#F0FF
(1690846734.789594) can0 021#F04D00
(1690846734.814278) can0 01F#F002EA01
(1690846734.814351) can0 020#F0FF
(1690846734.814502) can0 021#F04D00
(1690846734.815088) can0 062#BE00EA
(1690846734.815356) can0 0CC#E33A0F0000B2002F
(1690846734.824166) can0 0C9#AA8905FA000C00
(1690846734.826667) can0 0D6#FDFC010B02E601
(1690846734.826851) can0 0D7#FE000000000000
(1690846734.839221) can0 01F#F002EA01
(1690846734.839338) can0 020#F0FF
(1690846734.839449) can0 021#F04D00
(1690846734.841323) can0 0CD#E4CF0052055F001F
(1690846734.841718) can0 062#BE00EA
(1690846734.846154) can0 0CC#E33A0F0000620030
(1690846734.850017) can0 023#B40200
(1690846734.864134) can0 01F#F002EA01
(1690846734.864209) can0 020#F0FF
(1690846734.864364) can0 021#F04C00
(1690846734.868398) can0 062#BE00EA
(1690846734.868998) can0 025#C8FF00
(1690846734.876769) can0 0D6#FDF8012A02E601
(1690846734.876945) can0 0D7#FE000000000000
(1690846734.881452) can0 0CC#E33A0F0000B20033
(1690846734.889215) can0 01F#F002EA01
(1690846734.889321) can0 020#F0FF
(1690846734.889441) can0 021#F04D00
(1690846734.895036) can0 062#BE00EA
(1690846734.913061) can0 0CC#E33A0F00005F0034
(1690846734.914131) can0 01F#F002EA01
(1690846734.914249) can0 020#F0FF
(1690846734.914389) can0 021#F04D00
(1690846734.921552) can0 062#BE00EA
(1690846734.926856) can0 0D6#FD3E0276020B02
(1690846734.927039) can0 0D7#FE000000000000
(1690846734.927501) can0 0D0#DD780500003C0F00
(1690846734.930684) can0 029#F000
(1690846734.932458) can0 0C9#AA8905FA000000
(1690846734.939154) can0 01F#F002EA00
(1690846734.939229) can0 020#F0FF
(1690846734.939380) can0 021#F04D00
(1690846734.939666) can0 0D0#DC78050000D80E00
(1690846734.945947) can0 0CC#E33A0F0000BE0036
(1690846734.948154) can0 062#BE00EA
(1690846734.956400) can0 025#C8FF00
(1690846734.961492) can0 063#BE0100
(1690846734.964024) can0 01F#F002EA00
(1690846734.964121) can0 020#F0FF
(1690846734.964281) can0 021#F04C00
(1690846734.974814) can0 062#BE00EA
(1690846734.975129) can0 0CD#E4CF0052055F001F
(1690846734.976910) can0 0D6#FD18025002FC01
(1690846734.977111) can0 0D7#FE000000000000
(1690846734.979900) can0 0CC#E3390F0000590038
(1690846734.988822) can0 01E#F00200
(1690846734.988938) can0 01F#F002EA00
(1690846734.989063) can0 020#F0FF
(1690846734.989225) can0 021#F04D00
(1690846735.001531) can0 062#BE00EA
(1690846735.013008) can0 0CC#E3390F0000C4003A
(1690846735.013990) can0 01F#F002EA01
(1690846735.014093) can0 020#F0FF
(1690846735.014247) can0 021#F04D00
(1690846735.027013) can0 0D6#FD2D0250021B02
(1690846735.027192) can0 0D7#FE000000000000
(1690846735.028008) can0 062#BE00EA
(1690846735.038811) can0 01F#F002EA01
(1690846735.038889) can0 020#F0FF
(1690846735.039035) can0 021#F04D00
(1690846735.040599) can0 0C9#AA8A05FA000D00
(1690846735.045910) can0 0CC#E33A0F00005F003B
(1690846735.047912) can0 025#C8FF00
(1690846735.054683) can0 062#BE00EA
(1690846735.058006) can0 023#B40200
(1690846735.063896) can0 01F#F002EA00
(1690846735.063976) can0 020#F0FF
(1690846735.064128) can0 021#F04D00
(1690846735.077102) can0 0D6#FD540294020B02
(1690846735.077289) can0 0D7#FE000000000000
(1690846735.081119) can0 0CC#E33A0F0000B2003E
(1690846735.081257) can0 062#BE00EA
(1690846735.088882) can0 01F#F002EA00
(1690846735.088961) can0 020#F0FF
(1690846735.089107) can0 021#F04D00
(1690846735.107939) can0 062#BE00EA
(1690846735.108967) can0 0CD#E4CF0052055F0020
(1690846735.112829) can0 0CC#E33B0F00005F003F
(1690846735.113713) can0 01F#F002EA00
(1690846735.113829) can0 020#F0FF
(1690846735.113981) can0 021#F04D00
(1690846735.127188) can0 0D6#FDFE012A02C701
(1690846735.127359) can0 0D7#FE000000000000
(1690846735.134557) can0 062#BE00EA
(1690846735.135258) can0 025#C8FF00
(1690846735.138698) can0 01F#F002EA00
(1690846735.138772) can0 020#F0FF
(1690846735.138939) can0 021#F04D00
(1690846735.143777) can0 0D0#DD780500003C0F00
(1690846735.145706) can0 0CC#E33B0F0000BE0042
(1690846735.148656) can0 0C9#AA8905FA001900
(1690846735.155949) can0 0D0#DC78050000D80E00
(1690846735.161187) can0 062#BE00EA
(1690846735.163672) can0 01F#F002EA00
(1690846735.163781) can0 020#F0FF
(1690846735.163930) can0 021#F04D00
(1690846735.166254) can0 0D8#C8790E73017B01
(1690846735.166524) can0 0D9#C8FFFFFF030000
(1690846735.167916) can0 063#BE0100
(1690846735.177257) can0 0D6#FDFE010B02ED01
(1690846735.177433) can0 0D7#FE000000000000
(1690846735.179707) can0 0CC#E33A0F0000590043
(1690846735.187824) can0 062#BE0000
(1690846735.188590) can0 01F#F002EA00
(1690846735.188709) can0 029#F000
(1690846735.188831) can0 020#F0FF
(1690846735.188982) can0 021#F04D00
(1690846735.196771) can0 01E#F00200
(1690846735.212677) can0 0CC#E33A0F0000BE0045
(1690846735.213578) can0 01F#F002EA00
(1690846735.213678) can0 020#F0FF
(1690846735.213833) can0 021#F04D00
(1690846735.214491) can0 062#BE00EA
(1690846735.226823) can0 025#C8FF00
(1690846735.227277) can0 0D6#FD12022A020402
(1690846735.227509) can0 0D7#FE000000000000
(1690846735.238454) can0 01F#F002EA00
(1690846735.238536) can0 020#F0FF
(1690846735.238676) can0 021#F04D00
(1690846735.240693) can0 0CD#E4CF0052055F0020
(1690846735.241111) can0 062#BE00EA
(1690846735.245538) can0 0CC#E33B0F00005C0047
(1690846735.256835) can0 0C9#AA8905FA000000
(1690846735.263559) can0 01F#F002EA01
(1690846735.263637) can0 020#F0FF
(1690846735.263795) can0 021#F04D00
(1690846735.266006) can0 023#B40200
(1690846735.267764) can0 062#BE00EA
(1690846735.277423) can0 0D6#FD1B025F020402
(1690846735.277591) can0 0D7#FE000000000000
(1690846735.280963) can0 0CC#E33A0F0000B20049
(1690846735.288509) can0 01F#F002EA00
(1690846735.288586) can0 020#F0FF
(1690846735.288736) can0 021#F04D00
(1690846735.294425) can0 062#BE00EA
(1690846735.313238) can0 0CC#E33B0F00005E004A
(1690846735.313328) can0 01F#F002EA00
(1690846735.313474) can0 020#F0FF
(1690846735.313632) can0 021#F04C00
(1690846735.314120) can0 025#C8FF00
(1690846735.320942) can0 062#BE00EA
(1690846735.327498) can0 0D6#FD250239020B02
(1690846735.327672) can0 0D7#FE000000000000
(1690846735.338254) can0 01F#F002EA00
(1690846735.338329) can0 020#F0FF
(1690846735.338486) can0 021#F04D00
(1690846735.345302) can0 0CC#E3BC0F0000C4004D
(1690846735.347562) can0 062#BE00EA
(1690846735.360294) can0 0D0#DD780500003C0F00
(1690846735.363350) can0 01F#F002EA00
(1690846735.363421) can0 020#F0FF
(1690846735.363597) can0 021#F04D00
(1690846735.365088) can0 0C9#AA8805FA001900
(1690846735.372499) can0 0D0#DC78050000D80E00
(1690846735.374170) can0 063#BE0100
(1690846735.374303) can0 062#BE0000
(1690846735.374526) can0 0CD#E4CF0052055F0020
(1690846735.377569) can0 0D6#FD210248020402
(1690846735.377751) can0 0D7#FE000000000000
(1690846735.379227) can0 0CC#E33A0F000059004E
(1690846735.388156) can0 01F#F002EA00
(1690846735.388233) can0 020#F0FF
(1690846735.388384) can0 021#F04C00
(1690846735.400833) can0 062#BE00EA
(1690846735.404796) can0 01E#F00200
(1690846735.405649) can0 025#C8FF00
(1690846735.412367) can0 0CC#E33A0F0000BE0051
(1690846735.413204) can0 01F#F002EA00
(1690846735.413316) can0 020#F0FF
(1690846735.413466) can0 021#F04D00
(1690846735.427463) can0 062#BE00EA
(1690846735.427624) can0 0D6#FD0F0213020B02
(1690846735.427844) can0 0D7#FE000000000000
(1690846735.438068) can0 01F#F002EA00
(1690846735.438153) can0 020#F0FF
(1690846735.438295) can0 021#F04D00
(1690846735.446281) can0 029#F000
(1690846735.449462) can0 0CC#E33A0F00005F0052
(1690846735.454077) can0 062#BE00EA
(1690846735.463019) can0 01F#F002EA00
(1690846735.463100) can0 020#F0FF
(1690846735.463256) can0 021#F04D00
(1690846735.473167) can0 0C9#AA8705FA000C00
(1690846735.473960) can0 023#B40200
(1690846735.477728) can0 0D6#FD03023102ED01
(1690846735.477914) can0 0D7#FE000000000000
(1690846735.479210) can0 0CC#E30100
(1690846735.479467) can0 0CC#E33A0F0000620053
(1690846735.480754) can0 062#BE0000
(1690846735.488095) can0 01F#F002EA00
(1690846735.488172) can0 020#F0FF
(1690846735.488322) can0 021#F04D00
(1690846735.497237) can0 025#C8FF00
(1690846735.507330) can0 062#BE00EA
(1690846735.508416) can0 0CD#E4CF0052055F001F
(1690846735.513018) can0 01F#F002EA00
(1690846735.513091) can0 020#F0FF
(1690846735.513247) can0 021#F04D00
(1690846735.513480) can0 0CC#E33A0F0000000053
(1690846735.527856) can0 0D6#FD3E0257021B02
(1690846735.527994) can0 0D7#FE000000000000
(1690846735.533956) can0 062#BE00EA
(1690846735.537964) can0 01F#F002EA00
(1690846735.538044) can0 020#F0FF
(1690846735.538191) can0 021#F04D00
(1690846735.544971) can0 0CC#E33A0F0000000052
(1690846735.556136) can0 064#AA0200
(1690846735.557306) can0 0D8#C8790E73017B01
(1690846735.557585) can0 0D9#C8FFFFFF030000
(1690846735.560558) can0 062#BE00EA
(1690846735.562910) can0 01F#F002EA00
(1690846735.563004) can0 020#F0FF
(1690846735.563153) can0 021#F04D00
(1690846735.576636) can0 0D0#DD780500003C0F00
(1690846735.577874) can0 0D6#FDFC012A02C001
(1690846735.578077) can0 0D7#FE000000000000
(1690846735.578906) can0 0CC#E33A0F0000000052
(1690846735.580521) can0 063#BE0100
(1690846735.581283) can0 0C9#AA8705FA000000
(1690846735.584553) can0 025#C8FF00
(1690846735.587200) can0 062#BE0000
(1690846735.587832) can0 01F#F002EA00
(1690846735.587954) can0 020#F0FF
(1690846735.588105) can0 021#F04D00
(1690846735.588785) can0 0D0#DC78050000D80E00
(1690846735.612663) can0 01E#F00200
(1690846735.612769) can0 01F#F002EA00
(1690846735.612899) can0 020#F0FF
(1690846735.613050) can0 021#F04D00
(1690846735.613293) can0 0CC#E33A0F0000000053
(1690846735.613873) can0 062#BE0000
(1690846735.627987) can0 0D6#FD38026E02D601
(1690846735.628173) can0 0D7#FE000000000000
(1690846735.637705) can0 01F#F002EA00
(1690846735.637792) can0 020#F0FF
(1690846735.637932) can0 021#F04D00
(1690846735.640064) can0 0CD#E4CF0052055F001F
(1690846735.640504) can0 062#BE00EA
(1690846735.644784) can0 0CC#E33A0F0000000053
(1690846735.662632) can0 01F#F002EA00
(1690846735.662706) can0 020#F0FF
(1690846735.662875) can0 021#F04D00
(1690846735.667185) can0 062#BE00EA
(1690846735.676125) can0 025#C8FF00
(1690846735.678049) can0 0D6#FDE7010B02B001
(1690846735.678241) can0 0D7#FE000000000000
(1690846735.678728) can0 0CC#E33A0F0000000052
(1690846735.681994) can0 023#B40200
(1690846735.687728) can0 01F#F002EA01
(1690846735.687805) can0 020#F0FF
(1690846735.687964) can0 021#F04D00
(1690846735.689579) can0 0C9#AA8705FA000C00
(1690846735.693814) can0 062#BE00EA
(1690846735.704136) can0 029#F000
(1690846735.712590) can0 0CC#E33A0F0000000052
(1690846735.712668) can0 020#F0FF
(1690846735.712816) can0 021#F04D00
(1690846735.712987) can0 01F#F002EA00
(1690846735.720331) can0 062#BE00EA
(1690846735.726974) can0 024#BE00
(1690846735.728116) can0 0D6#FD08023102F501
(1690846735.728322) can0 0D7#FE000000000000
(1690846735.735400) can0 022#B400
(1690846735.737608) can0 01F#F002EA01
(1690846735.737711) can0 020#F0FF
(1690846735.737860) can0 021#F04D00
(1690846735.740216) can0 022#B4FF
(1690846735.744622) can0 0CC#E33A0F0000000052
(1690846735.748549) can0 022#B4FF
(1690846735.753697) can0 062#BE0030
(1690846735.756865) can0 022#B4FF
(1690846735.762582) can0 01F#F002EA00
(1690846735.762655) can0 020#F0FF
(1690846735.762818) can0 021#F04D00
(1690846735.763425) can0 075#C80200
(1690846735.763568) can0 025#C8FF00
(1690846735.765158) can0 022#B4FF
(1690846735.773504) can0 022#B4FF
(1690846735.773879) can0 0CD#E4CF0052055F001F
(1690846735.778221) can0 0D6#FD17022A020B02
(1690846735.778401) can0 0D7#FE000000000000
(1690846735.778641) can0 0CC#E33A0F0000000053
(1690846735.780302) can0 062#BE00EA
(1690846735.781803) can0 022#B4FF
(1690846735.787506) can0 01F#F002EA00
(1690846735.787585) can0 020#F0FF
(1690846735.787742) can0 021#F04D00
(1690846735.790121) can0 022#B4FF
(1690846735.793071) can0 0D0#DD780500003C0F00
(1690846735.793599) can0 063#BE0100
(1690846735.797680) can0 0C9#AA8705FA000C00
(1690846735.798521) can0 022#B4FF
(1690846735.805325) can0 0D0#DC78050000D80E00
(1690846735.806737) can0 022#B4FF
(1690846735.806873) can0 062#BE0000
(1690846735.812430) can0 0CC#E33A0F0000000053
(1690846735.812508) can0 020#F0FF
(1690846735.812653) can0 021#F04D00
(1690846735.812814) can0 01F#F002EA00
(1690846735.815077) can0 022#B4FF
(1690846735.820694) can0 01E#F00200
(1690846735.823414) can0 022#B4FF
(1690846735.828304) can0 0D6#FD02022A02E601
(1690846735.828487) can0 0D7#FE000000000000
(1690846735.831745) can0 022#B4FF
(1690846735.833543) can0 062#BE0000
(1690846735.837411) can0 01F#F002EA00
(1690846735.837489) can0 020#F0FF
(1690846735.837639) can0 021#F04D00
(1690846735.840049) can0 022#B4FF
(1690846735.844574) can0 0CC#E33B0F0000000052
(1690846735.848379) can0 022#B4FF
(1690846735.855002) can0 025#C8FF00
(1690846735.856678) can0 022#B4FF
(1690846735.860206) can0 062#BE00EA
(1690846735.862337) can0 01F#F002EA00
(1690846735.862439) can0 020#F0FF
(1690846735.862587) can0 021#F04D00
(1690846735.865008) can0 022#B4FF
(1690846735.873344) can0 022#B4FF
(1690846735.878393) can0 0D6#FD1B023102F501
(1690846735.878579) can0 0CC#E33A0F0000000052
(1690846735.881654) can0 022#B4FF
(1690846735.886837) can0 062#BE00EA
(1690846735.887265) can0 01F#F002EA00
(1690846735.887386) can0 020#F0FF
(1690846735.887539) can0 021#F04D00
(1690846735.889958) can0 023#B40200
(1690846735.890073) can0 022#B4FF
(1690846735.898310) can0 022#B4FF
(1690846735.906616) can0 022#B4FF
(1690846735.907217) can0 0C9#AA8605FA000C00
(1690846735.907691) can0 0CD#E4CF0052055F0020
(1690846735.912364) can0 0CC#E33A0F0000000052
(1690846735.912467) can0 021#F04D00
(1690846735.912599) can0 020#F0FF
(1690846735.912767) can0 01F#F002EA00
(1690846735.913424) can0 062#BE00EA
(1690846735.914916) can0 022#B4FF
(1690846735.923257) can0 022#B4FF
(1690846735.928480) can0 0D6#FD1B022A020B02
(1690846735.928663) can0 0D7#FE000000000000
(1690846735.931567) can0 022#B4FF
(1690846735.937282) can0 01F#F002EA01
(1690846735.937360) can0 020#F0FF
(1690846735.937514) can0 021#F04D00
(1690846735.939879) can0 022#B4FF
(1690846735.940040) can0 062#BE00EA
(1690846735.944227) can0 0D8#C86F0E71017E01
(1690846735.944423) can0 0CC#E33A0F0000000053
(1690846735.944643) can0 0D9#C8FFFFFF030000
(1690846735.944789) can0 025#C8FF00
(1690846735.948179) can0 022#B4FF
(1690846735.956540) can0 022#B4FF
(1690846735.962166) can0 01F#F002EA01
(1690846735.962247) can0 029#F000
(1690846735.962386) can0 020#F0FF
(1690846735.962544) can0 021#F04D00
(1690846735.964855) can0 022#B4FF
(1690846735.966672) can0 062#BE00EA
(1690846735.973181) can0 022#B4FF
(1690846735.978347) can0 0CC#E33A0F0000000053
(1690846735.978523) can0 0D6#FD440250022A02
(1690846735.978747) can0 0D7#FE000000000000
(1690846735.981492) can0 022#B4FF
(1690846735.987162) can0 01F#F002EA01
(1690846735.987241) can0 020#F0FF
(1690846735.987391) can0 021#F04D00
(1690846735.989811) can0 022#B4FF
(1690846735.993344) can0 062#BE00EA
(1690846735.998136) can0 022#B4FF
(1690846735.999981) can0 063#BE0100
(1690846736.006553) can0 022#B4FF
(1690846736.009269) can0 0D0#DD780500003C0F00
(1690846736.012075) can0 0CC#E33A0F0000000052
(1690846736.012147) can0 020#F0FF
(1690846736.012316) can0 021#F04D00
(1690846736.012478) can0 01F#F002EA01
(1690846736.014068) can0 0C9#AA8705FA000000
(1690846736.014748) can0 022#B4FF
(1690846736.019946) can0 062#BE00EA
(1690846736.021498) can0 0D0#DC78050000D80E00
(1690846736.023080) can0 022#B4FF
(1690846736.028725) can0 0D6#FD0E022202D601
(1690846736.028806) can0 01E#F00200
(1690846736.031409) can0 022#B4FF
(1690846736.033879) can0 025#C8FF00
(1690846736.037096) can0 01F#F002EA00
(1690846736.037166) can0 020#F0FF
(1690846736.037336) can0 021#F04D00
(1690846736.039480) can0 0CD#E4CF0052055F0020
(1690846736.039675) can0 022#B4FF
(1690846736.044142) can0 0CC#E33A0F0000000052
(1690846736.046596) can0 062#BE00EA
(1690846736.048011) can0 022#B4FF
(1690846736.056382) can0 022#B4FF
(1690846736.061983) can0 01F#F002EA00
(1690846736.062055) can0 020#F0FF
(1690846736.062220) can0 021#F04D00
(1690846736.064700) can0 022#B4FF
(1690846736.069572) can0 06D#DD021F
(1690846736.072999) can0 022#B4FF
(1690846736.073212) can0 062#BE00EA
(1690846736.078158) can0 0CC#E33A0F0000000052
(1690846736.078687) can0 0D6#FDF8012202D601
(1690846736.078901) can0 0D7#FE000000000000
(1690846736.081331) can0 022#B4FF
(1690846736.081793) can0 06D#DC021F
(1690846736.086960) can0 01F#F002EA00
(1690846736.087037) can0 020#F0FF
(1690846736.087193) can0 021#F04D00
(1690846736.089652) can0 022#B4FF
(1690846736.097983) can0 023#B40200
(1690846736.098078) can0 022#B4FF
(1690846736.099905) can0 062#BE00EA
(1690846736.106415) can0 022#B4FF
(1690846736.111874) can0 01F#F002EA00
(1690846736.111947) can0 020#F0FF
(1690846736.112119) can0 021#F04D00
(1690846736.112354) can0 0CC#E33A0F0000000053
(1690846736.114583) can0 022#B4FF
(1690846736.122332) can0 0C9#AA8705FA000C00
(1690846736.122880) can0 022#B4FF
(1690846736.125414) can0 025#C8FF00
(1690846736.126415) can0 062#BE00EA
(1690846736.128790) can0 0D6#FD56027D023102
(1690846736.128982) can0 0D7#FE000000000000
(1690846736.131222) can0 022#B4FF
(1690846736.136875) can0 01F#F002EA00
(1690846736.136954) can0 020#F0FF
(1690846736.137113) can0 021#F04D00
(1690846736.139552) can0 022#B4FF
(1690846736.143982) can0 0CC#E33A0F0000000053
(1690846736.147896) can0 022#B4FF
(1690846736.153093) can0 062#BE00EA
(1690846736.161716) can0 01F#F002EA00
(1690846736.161794) can0 020#F0FF
(1690846736.161964) can0 021#F04D00
(1690846736.173387) can0 0CD#E4CF0051055F001F
(1690846736.177949) can0 0CC#E33A0F0000000052
(1690846736.178867) can0 0D6#FD31027D02FC01
(1690846736.179066) can0 0D7#FE000000000000
(1690846736.179588) can0 062#BE00EA
(1690846736.186829) can0 01F#F002EA00
(1690846736.186907) can0 020#F0FF
(1690846736.187053) can0 021#F04D00
(1690846736.206271) can0 063#BE0100
(1690846736.206357) can0 062#BE0000
(1690846736.211721) can0 01F#F002EA00
(1690846736.211794) can0 020#F0FF
(1690846736.211942) can0 021#F04D00
(1690846736.212179) can0 0CC#E33A0F0000000052
(1690846736.212732) can0 025#C8FF00
(1690846736.219934) can0 029#F000
(1690846736.225827) can0 0D0#DD780500003C0F00
(1690846736.228958) can0 0D6#FD05022A02E601
(1690846736.229148) can0 0D7#FE000000000000
(1690846736.230281) can0 0C9#AA8705FA000C00
(1690846736.232898) can0 062#BE00EA
(1690846736.236597) can0 01E#F00200
(1690846736.236713) can0 01F#F002EA00
(1690846736.236845) can0 020#F0FF
(1690846736.236996) can0 021#F04D00
(1690846736.238004) can0 0D0#DC78050000D80E00
(1690846736.243800) can0 0CC#E33A0F0000000053
(1690846736.259492) can0 062#BE00EA
(1690846736.261613) can0 01F#F002EA00
(1690846736.261691) can0 020#F0FF
(1690846736.261850) can0 021#F04D00
(1690846736.277924) can0 0CC#E33A0F0000000053
(1690846736.279023) can0 0D6#FD200231020B02
(1690846736.279233) can0 0D7#FE000000000000
(1690846736.286131) can0 062#BE00EA
(1690846736.286545) can0 01F#F002EA00
(1690846736.286679) can0 020#F0FF
(1690846736.286821) can0 021#F04D00
(1690846736.304292) can0 025#C8FF00
(1690846736.305941) can0 023#B40200
(1690846736.307154) can0 0CD#E4CE0052055F001F
(1690846736.311517) can0 01F#F002EA00
(1690846736.311592) can0 020#F0FF
(1690846736.311758) can0 021#F04D00
(1690846736.311993) can0 0CC#E33A0F0000000053
(1690846736.312812) can0 062#BE00EA
(1690846736.329139) can0 0D6#FDFA0131027B01
(1690846736.329350) can0 0D7#FE000000000000
(1690846736.335294) can0 0D8#C8790E73017E01
(1690846736.335539) can0 0D9#C8FFFFFF030000
(1690846736.336454) can0 01F#F002EA00
(1690846736.336572) can0 020#F0FF
(1690846736.336723) can0 021#F04D00
(1690846736.338544) can0 0C9#AA8705FA000000
(1690846736.339451) can0 062#BE00EA
(1690846736.343734) can0 0CC#E33A0F0000000052
(1690846736.361335) can0 01F#F002EA00
(1690846736.361408) can0 020#F0FF
(1690846736.361562) can0 021#F04D00
(1690846736.366122) can0 062#BE00EA
(1690846736.377778) can0 0CC#E33A0F0000000052
(1690846736.379203) can0 0D6#FDFC011302E601
(1690846736.379386) can0 0D7#FE000000000000
(1690846736.386416) can0 01F#F002EA00
(1690846736.386493) can0 020#F0FF
(1690846736.386646) can0 021#F04D00
(1690846736.391669) can0 025#C8FF00
(1690846736.392716) can0 062#BE00EA
(1690846736.411244) can0 01F#F002EA00
(1690846736.411321) can0 020#F0FF
(1690846736.411477) can0 021#F04D00
(1690846736.411710) can0 0CC#E33A0F0000000053
(1690846736.412674) can0 063#BE0100
(1690846736.419278) can0 062#BE0000
(1690846736.429343) can0 0D6#FD330257021302
(1690846736.429467) can0 0D7#FE000000000000
(1690846736.436320) can0 01F#F002EA00
(1690846736.436395) can0 020#F0FF
(1690846736.436551) can0 021#F04D00
(1690846736.438812) can0 0CD#E4CF0052055F001F
(1690846736.442126) can0 0D0#DD780500003C0F00
(1690846736.443460) can0 0CC#E33B0F0000000053
(1690846736.444529) can0 01E#F00200
(1690846736.445938) can0 062#BE0000
(1690846736.446708) can0 0C9#AA8705FA000C00
(1690846736.454398) can0 0D0#DC78050000D80E00
(1690846736.461308) can0 01F#F002EA01
(1690846736.461383) can0 020#F0FF
(1690846736.461546) can0 021#F04D00
(1690846736.472527) can0 062#BE00EA
(1690846736.477372) can0 0CC#E30100
(1690846736.477616) can0 0CC#E33A0F0000000053
(1690846736.477748) can0 029#F000
(1690846736.479356) can0 0D6#FDFD015F02CF01
(1690846736.479554) can0 0D7#FE000000000000
(1690846736.483184) can0 025#C8FF00
(1690846736.486223) can0 01F#F002EA01
(1690846736.486297) can0 020#F0FF
(1690846736.486481) can0 021#F04D00
(1690846736.499159) can0 062#BE00EA
(1690846736.511056) can0 01F#F002EA01
(1690846736.511134) can0 020#F0FF
(1690846736.511289) can0 021#F04D00
(1690846736.511524) can0 0CC#E33A0F0000000052
(1690846736.513972) can0 023#B40200
(1690846736.525779) can0 062#BE0000
(1690846736.529450) can0 0D6#FD04025702C701
(1690846736.529635) can0 0D7#FE000000000000
(1690846736.536142) can0 01F#F002EA01
(1690846736.536224) can0 020#F0FF
(1690846736.536363) can0 021#F04D00
(1690846736.543340) can0 0CC#E33B0F0000000052
(1690846736.552402) can0 062#BE00EA
(1690846736.554811) can0 0C9#AA8705FA000C00
(1690846736.561072) can0 01F#F002EA01
(1690846736.561152) can0 020#F0FF
(1690846736.561294) can0 021#F04D00
(1690846736.562985) can0 064#AA0200
(1690846736.570542) can0 025#C8FF00
(1690846736.572734) can0 0CD#E4CF0052055F0020
(1690846736.577324) can0 0CC#E33A0F0000000053
(1690846736.579015) can0 062#BE00EA
(1690846736.579494) can0 0D6#FDFB010B02ED01
(1690846736.579711) can0 0D7#FE000000000000
(1690846736.586062) can0 01F#F002EA00
(1690846736.586141) can0 020#F0FF
(1690846736.586289) can0 021#F04D00
(1690846736.605668) can0 062#BE00EA
(1690846736.610963) can0 01F#F002EA00
(1690846736.611034) can0 020#F0FF
(1690846736.611206) can0 021#F04D00
(1690846736.611443) can0 0CC#E33A0F0000000053
(1690846736.618974) can0 063#BE0100
(1690846736.629625) can0 0D6#FD50028C021B02
(1690846736.629798) can0 0D7#FE000000000000
(1690846736.632265) can0 062#BE0000
(1690846736.635940) can0 01F#F002EA00
(1690846736.636015) can0 020#F0FF
(1690846736.636167) can0 021#F04D00
(1690846736.643161) can0 0CC#E33A0F0000000053
(1690846736.652387) can0 01E#F00200
(1690846736.658597) can0 0D0#DD780500003C0F00
(1690846736.658946) can0 062#BE0000
(1690846736.660877) can0 01F#F002EA00
(1690846736.660984) can0 020#F0FF
(1690846736.661127) can0 021#F04D00
(1690846736.662030) can0 025#C8FF00
(1690846736.663215) can0 0C9#AA8705F7000000
(1690846736.670860) can0 0D0#DC78050000D80E00
(1690846736.677283) can0 0CC#E33A0F0000000052
(1690846736.679700) can0 0D6#FDFF016602C701
(1690846736.679883) can0 0D7#FE000000000000
(1690846736.685538) can0 062#BE00EA
(1690846736.685819) can0 01F#F002EA00
(1690846736.685933) can0 020#F0FF
(1690846736.686082) can0 021#F04D00
(1690846736.706328) can0 0CD#E4CF0052055F0020
(1690846736.710799) can0 01F#F002EA00
(1690846736.710879) can0 020#F0FF
(1690846736.711047) can0 021#F04D00
(1690846736.711275) can0 0CC#E33A0F0000000052
(1690846736.712223) can0 062#BE00EA
(1690846736.721955) can0 023#B40200
(1690846736.722139) can0 0D8#C8790E71017B01
(1690846736.722434) can0 0D9#C8FFFFFF030000
(1690846736.729791) can0 0D6#FD07021B02E601
(1690846736.729969) can0 0D7#FE000000000000
(1690846736.735753) can0 01F#F002EA00
(1690846736.735831) can0 020#F0FF
(1690846736.735975) can0 029#F000
(1690846736.736120) can0 021#F04D00
(1690846736.738868) can0 062#BE00EA
(1690846736.743128) can0 0CC#E33A0F0000000053
(1690846736.753602) can0 025#C8FF00
(1690846736.760687) can0 01F#F002EA00
(1690846736.760766) can0 020#F0FF
(1690846736.760931) can0 021#F04D00
(1690846736.765511) can0 062#BE00EA
(1690846736.771134) can0 0C9#AA8705FA000C00
(1690846736.777082) can0 0CC#E33A0F0000000053
(1690846736.779881) can0 0D6#FD1B023902E601
(1690846736.780066) can0 0D7#FE000000000000
(1690846736.785670) can0 01F#F002EA00
(1690846736.785749) can0 020#F0FF
(1690846736.785904) can0 021#F04D00
(1690846736.792142) can0 062#BE00EA
(1690846736.810502) can0 01F#F002EA00
(1690846736.810585) can0 020#F0FF
(1690846736.810736) can0 021#F04D00
(1690846736.810978) can0 0CC#E33A0F0000000053
(1690846736.818677) can0 062#BE00EA
(1690846736.825327) can0 063#BE0100
(1690846736.829974) can0 0D6#FD30025F020B02
(1690846736.830148) can0 0D7#FE000000000000
(1690846736.835583) can0 01F#F002EA00
(1690846736.835672) can0 020#F0FF
(1690846736.835812) can0 021#F04D00
(1690846736.837963) can0 0CD#E40100
(1690846736.838254) can0 0CD#E4CF0052055F0020
(1690846736.840952) can0 025#C8FF00
(1690846736.842831) can0 0CC#E33B0F0000000052
(1690846736.845288) can0 062#BE00EA
(1690846736.860323) can0 01E#F00200
(1690846736.860435) can0 01F#F002EA00
(1690846736.860567) can0 020#F0FF
(1690846736.860722) can0 021#F04D00
(1690846736.872085) can0 062#BE00EA
(1690846736.874808) can0 0D0#DD780500003C0F00
(1690846736.876943) can0 0CC#E33A0F0000000052
(1690846736.879421) can0 0C9#AA8705FA000C00
(1690846736.880117) can0 0D6#FD15024802ED01
(1690846736.880231) can0 0D7#FE000000000000
(1690846736.885521) can0 01F#F002EA02
(1690846736.885593) can0 020#F0FF
(1690846736.885756) can0 021#F04D00
(1690846736.887029) can0 0D0#DC78050000D80E00
(1690846736.898595) can0 062#BE00EA
(1690846736.910297) can0 01F#F002EA02
(1690846736.910396) can0 020#F0FF
(1690846736.910540) can0 021#F04D00
(1690846736.910783) can0 0CC#E33A0F0000000053
(1690846736.925172) can0 062#BE00EA
(1690846736.929938) can0 023#B40200
(1690846736.930117) can0 0D6#FD10023902FC01
(1690846736.930352) can0 0D7#FE000000000000
(1690846736.932479) can0 025#C8FF00
(1690846736.935393) can0 01F#F002EA00
(1690846736.935464) can0 020#F0FF
(1690846736.935633) can0 021#F04D00
(1690846736.942726) can0 0CC#E33A0F0000000053
(1690846736.951877) can0 062#BE00EA
(1690846736.960362) can0 01F#F002EA00
(1690846736.960456) can0 020#F0FF
(1690846736.960602) can0 021#F04D00
(1690846736.972150) can0 0CD#E4CF0052055F001F
(1690846736.976745) can0 0CC#E33A0F0000000052
(1690846736.978451) can0 062#BE00EA
(1690846736.980302) can0 0D6#FD160222020402
(1690846736.980398) can0 0D7#FE000000000000
(1690846736.985339) can0 01F#F002EA00
(1690846736.985428) can0 020#F0FF
(1690846736.985545) can0 021#F04D00
(1690846736.987607) can0 0C9#AA8705FA000000
(1690846736.993520) can0 029#F000
(1690846737.005041) can0 062#BE00EA
(1690846737.010252) can0 01F#F002EA00
(1690846737.010324) can0 020#F0FF
(1690846737.010499) can0 021#F04D00
(1690846737.010736) can0 0CC#E33A0F0000000052
(1690846737.019817) can0 025#C8FF00
(1690846737.030291) can0 0D6#FD47025F022A02
(1690846737.030481) can0 0D7#FE000000000000
(1690846737.031628) can0 063#BE0100
(1690846737.031771) can0 062#BE0000
(1690846737.035188) can0 01F#F002EA00
(1690846737.035261) can0 020#F0FF
(1690846737.035439) can0 021#F04D00
(1690846737.042493) can0 0CC#E33A0F0000000052
(1690846737.058294) can0 062#BE00EA
(1690846737.060093) can0 01F#F002EA00
(1690846737.060197) can0 020#F0FF
(1690846737.060347) can0 021#F04D00
(1690846737.068269) can0 01E#F00200
(1690846737.076619) can0 0CC#E33A0F0000000053
(1690846737.080358) can0 0D6#FD340241022202
(1690846737.080556) can0 0D7#FE000000000000
(1690846737.084932) can0 062#BE0000
(1690846737.085053) can0 01F#F002EA00
(1690846737.085186) can0 020#F0FF
(1690846737.085335) can0 021#F04D00
(1690846737.091319) can0 0D0#DD780500003C0F00
(1690846737.095636) can0 0C9#AA8705FA000C00
(1690846737.103630) can0 0D0#DC78050000D80E00
(1690846737.105900) can0 0CD#E4CE0052055F001F
(1690846737.110037) can0 01F#F002EA00
(1690846737.110140) can0 020#F0FF
(1690846737.110292) can0 021#F04D00
(1690846737.110535) can0 0CC#E33A0F0000000053
(1690846737.111613) can0 062#BE00EA
(1690846737.113215) can0 0D8#C8790E71017B01
(1690846737.113483) can0 0D9#C8FFFFFF030000
(1690846737.113620) can0 025#C8FF00
(1690846737.130440) can0 0D6#FD2B0239021302
(1690846737.130633) can0 0D7#FE000000000000
(1690846737.135048) can0 01F#F002EA00
(1690846737.135123) can0 020#F0FF
(1690846737.135285) can0 021#F04D00
(1690846737.137927) can0 023#B40200
(1690846737.138216) can0 062#BE00EA
(1690846737.142476) can0 0CC#E33A0F0000000052
(1690846737.159830) can0 01F#F002EA00
(1690846737.159931) can0 020#F0FF
(1690846737.160081) can0 021#F04D00
(1690846737.164901) can0 062#BE00EA
(1690846737.176456) can0 0CC#E33A0F0000000052
(1690846737.180521) can0 0D6#FDEF011B02C701
(1690846737.180718) can0 0D7#FE000000000000
(1690846737.184904) can0 01F#F002EA00
(1690846737.184980) can0 020#F0FF
(1690846737.185153) can0 021#F04D00
(1690846737.191520) can0 062#BE00EA
(1690846737.198731) can0 025#C8FF00
(1690846737.203800) can0 0C9#AA8705FA001900
(1690846737.209867) can0 01F#F002EA00
(1690846737.209943) can0 020#F0FF
(1690846737.210110) can0 021#F04D00
(1690846737.210347) can0 0CC#E33A0F0000000052
(1690846737.218055) can0 062#BE00EA
(1690846737.230594) can0 0D6#FD12024802B801
(1690846737.230801) can0 0D7#FE000000000000
(1690846737.234809) can0 01F#F002EA00
(1690846737.234913) can0 020#F0FF
(1690846737.235056) can0 021#F04D00
(1690846737.237583) can0 0CD#E4CF0052055E001F
(1690846737.238069) can0 063#BE0100
(1690846737.242178) can0 0CC#E33A0F0100000053
(1690846737.244647) can0 062#BE0000
(1690846737.251320) can0 029#F000
(1690846737.259665) can0 01F#F002EA00
(1690846737.259742) can0 020#F0FF
(1690846737.259902) can0 021#F04D00
(1690846737.271319) can0 062#BE00EA
(1690846737.276182) can0 0CC#E33B0F0000000053
(1690846737.276261) can0 01E#F00200
(1690846737.280701) can0 0D6#FD2B0248020402
(1690846737.280883) can0 0D7#FE000000000000
(1690846737.284738) can0 01F#F002EA00
(1690846737.284819) can0 020#F0FF
(1690846737.284973) can0 021#F04D00
(1690846737.290273) can0 025#C8FF00
(1690846737.297934) can0 062#BE00EA
(1690846737.307641) can0 0D0#DD780500003C0F00
(1690846737.309664) can0 01F#F002EA00
(1690846737.309771) can0 020#F0FF
(1690846737.309926) can0 021#F04D00
(1690846737.310170) can0 0CC#E33A0F0000000052
(1690846737.312060) can0 0C9#AA8705FA000000
(1690846737.319963) can0 0D0#DC78050000D80E00
(1690846737.324552) can0 062#BE00EA
(1690846737.330784) can0 0D6#FD0A022A02F501
(1690846737.330974) can0 0D7#FE000000000000
(1690846737.334635) can0 01F#F002EA00
(1690846737.334709) can0 020#F0FF
(1690846737.334865) can0 021#F04D00
(1690846737.342020) can0 0CC#E33A0F0000000052
(1690846737.345934) can0 023#B40200
(1690846737.351270) can0 062#BE0000
(1690846737.359571) can0 01F#F002EA00
(1690846737.359647) can0 020#F0FF
(1690846737.359806) can0 021#F04D00
(1690846737.371418) can0 0CD#E4CF0052055F0020
(1690846737.376113) can0 0CC#E33B0F0000000052
(1690846737.377614) can0 025#C8FF00
(1690846737.377763) can0 062#BE00EA
(1690846737.380854) can0 0D6#FD09023902CF01
(1690846737.381038) can0 0D7#FE000000000000
(1690846737.384596) can0 01F#F002EA01
(1690846737.384673) can0 020#F0FF
(1690846737.384825) can0 021#F04D00
(1690846737.404452) can0 062#BE00EA
(1690846737.409519) can0 01F#F002EA00
(1690846737.409595) can0 020#F0FF
(1690846737.409747) can0 021#F04D00
(1690846737.409987) can0 0CC#E33A0F0000000053
(1690846737.420149) can0 0C9#AA8705F7001900
(1690846737.430958) can0 0D6#FD24025002B801
(1690846737.431035) can0 062#BE00EA
(1690846737.434457) can0 01F#F002EA00
(1690846737.434536) can0 020#F0FF
(1690846737.434683) can0 021#F04D00
(1690846737.441861) can0 0CC#E33A0F0000000053
(1690846737.444366) can0 063#BE0100
(1690846737.457700) can0 062#BE0000
(1690846737.459368) can0 01F#F002EA00
(1690846737.459455) can0 020#F0FF
(1690846737.459601) can0 021#F04D00
(1690846737.469159) can0 025#C8FF00
(1690846737.475639) can0 0CC#E30100
(1690846737.475992) can0 0CC#E33A0F0000000052
(1690846737.481022) can0 0D6#FD0D021B020402
(1690846737.481217) can0 0D7#FE000000000000
(1690846737.484272) can0 01E#F00200
(1690846737.484391) can0 01F#F002EA00
(1690846737.484521) can0 020#F0FF
(1690846737.484674) can0 021#F04D00
(1690846737.484827) can0 062#BE00EA
(1690846737.500130) can0 0D8#C8790E71017B01
(1690846737.500381) can0 0D9#C8FFFFFF030000
(1690846737.505072) can0 0CD#E4CF0052055F0020
(1690846737.509362) can0 01F#F002EA00
(1690846737.509430) can0 029#F000
(1690846737.509537) can0 020#F0FF
(1690846737.509683) can0 021#F04D00
(1690846737.509923) can0 0CC#E33A0F0000000052
(1690846737.511003) can0 062#BE00EA
(1690846737.524123) can0 0D0#DD780500003C0F00
(1690846737.528323) can0 0C9#AA8705FA000C00
(1690846737.531125) can0 0D6#FD0A022202F501
(1690846737.531308) can0 0D7#FE000000000000
(1690846737.534266) can0 01F#F002EA00
(1690846737.534342) can0 020#F0FF
(1690846737.534504) can0 021#F04D00
(1690846737.536443) can0 0D0#DC78050000D80E00
(1690846737.537644) can0 062#BE00EA
(1690846737.541832) can0 0CC#E33A0F0000000052
(1690846737.553930) can0 023#B40200
(1690846737.559249) can0 01F#F002EA00
(1690846737.559400) can0 020#F0FF
(1690846737.559432) can0 021#F04D00
(1690846737.560705) can0 025#C8FF00
(1690846737.564305) can0 062#BE00EA
(1690846737.569675) can0 064#AA0200
(1690846737.574995) can0 0CC#E33B0F0000650014
(1690846737.581229) can0 0D6#FD10021B02FC01
(1690846737.581424) can0 0D7#FE000000000000
(1690846737.584168) can0 01F#F002EA00
(1690846737.584247) can0 020#F0FF
(1690846737.584411) can0 021#F04D00
(1690846737.590926) can0 062#BE00EA
(1690846737.608975) can0 0CC#E33B0F0000000016
(1690846737.609065) can0 020#F0FF
(1690846737.609206) can0 021#F04D00
(1690846737.609355) can0 01F#F002EA00
(1690846737.617458) can0 062#BE00EA
(1690846737.631313) can0 0D6#FDE3011302C701
(1690846737.631480) can0 0D7#FE000000000000
(1690846737.634093) can0 01F#F002EA00
(1690846737.634173) can0 020#F0FF
(1690846737.634316) can0 021#F04D00
(1690846737.636535) can0 0C9#AA8705FA000000
(1690846737.637000) can0 0CD#E4CE0052055F001F
(1690846737.642796) can0 0CC#E33B0F0000000017
(1690846737.644040) can0 062#BE00EA
(1690846737.648073) can0 025#C8FF00
(1690846737.650729) can0 063#BE0100
(1690846737.659026) can0 01F#F002EA00
(1690846737.659107) can0 020#F0FF
(1690846737.659249) can0 021#F04D00
(1690846737.670785) can0 062#BE00EA
(1690846737.674851) can0 0CC#E33B0F000000001A
(1690846737.681481) can0 0D6#FD0B021B020402
(1690846737.681638) can0 0D7#FE000000000000
(1690846737.683994) can0 01F#F002EA00
(1690846737.684074) can0 020#F0FF
(1690846737.684225) can0 021#F04D00
(1690846737.692224) can0 01E#F00200
(1690846737.697447) can0 062#BE0000
(1690846737.708813) can0 0CC#E33B0F000000001B
(1690846737.708893) can0 020#F0FF
(1690846737.709042) can0 021#F04D00
(1690846737.709199) can0 01F#F002EA01
(1690846737.723943) can0 062#BE00EA
(1690846737.731476) can0 0D6#FD1B025702E601
(1690846737.731655) can0 0D7#FE000000000000
(1690846737.733879) can0 01F#F002EA01
(1690846737.733953) can0 020#F0FF
(1690846737.734119) can0 021#F04D00
(1690846737.739563) can0 025#C8FF00
(1690846737.740262) can0 0D0#DD780500003C0F00
(1690846737.742589) can0 0CC#E33B0F000000001D
(1690846737.744630) can0 0C9#AA8705FA000C00
(1690846737.750583) can0 062#BE00EA
(1690846737.752638) can0 0D0#DC78050000D80E00
(1690846737.758817) can0 01F#F002EA01
(1690846737.758890) can0 020#F0FF
(1690846737.759051) can0 021#F04D00
(1690846737.761914) can0 023#B40200
(1690846737.767025) can0 029#F000
(1690846737.770745) can0 0CD#E4CF0052055F001F
(1690846737.774904) can0 0CC#E33B0F000000001F
(1690846737.777197) can0 062#BE0000
(1690846737.781528) can0 0D6#FDF3010B02E601
(1690846737.781743) can0 0D7#FE000000000000
(1690846737.783773) can0 01F#F002EA01
(1690846737.783843) can0 020#F0FF
(1690846737.784013) can0 021#F04D00
(1690846737.803842) can0 062#BE00EA
(1690846737.808772) can0 0CC#E33A0F0000000021
(1690846737.808847) can0 020#F0FF
(1690846737.809007) can0 021#F04D00
(1690846737.809172) can0 01F#F002EA01
(1690846737.826932) can0 025#C8FF00
(1690846737.830439) can0 062#BE00EA
(1690846737.831628) can0 0D6#FD2C0276020B02
(1690846737.831832) can0 0D7#FE000000000000
(1690846737.833666) can0 01F#F002EA01
(1690846737.833759) can0 020#F0FF
(1690846737.833916) can0 021#F04D00
(1690846737.842572) can0 0CC#E33B0F0000000024
(1690846737.852995) can0 0C9#AA8705FA000C00
(1690846737.857082) can0 063#BE0100
(1690846737.857188) can0 062#BE0000
(1690846737.858673) can0 01F#F002EA00
(1690846737.858792) can0 020#F0FF
(1690846737.858929) can0 021#F04D00
(1690846737.874568) can0 0CC#E33A0F0000000025
(1690846737.881750) can0 0D6#FDE901FC01CF01
(1690846737.881924) can0 0D7#FE000000000000
(1690846737.883582) can0 01F#F002EA00
(1690846737.883686) can0 020#F0FF
(1690846737.883836) can0 021#F04D00
(1690846737.883990) can0 062#BE00EA
(1690846737.891192) can0 0D8#C86F0E71017E01
(1690846737.891450) can0 0D9#C8FFFFFF030000
(1690846737.900049) can0 01E#F00200
(1690846737.904493) can0 0CD#E4CF0052055F001F
(1690846737.908593) can0 0CC#E33A0F0000000027
(1690846737.908669) can0 020#F0FF
(1690846737.908834) can0 021#F04D00
(1690846737.908996) can0 01F#F002EA00
(1690846737.910407) can0 062#BE00EA
(1690846737.918460) can0 025#C8FF00
(1690846737.931829) can0 0D6#FD0B021B020402
(1690846737.932003) can0 0D7#FE000000000000
(1690846737.933477) can0 01F#F002EA00
(1690846737.933598) can0 020#F0FF
(1690846737.933749) can0 021#F04D00
(1690846737.937056) can0 062#BE00EA
(1690846737.942438) can0 0CC#E33A0F0000000029
(1690846737.956854) can0 0D0#DD780500003C0F00
(1690846737.958463) can0 01F#F002EA00
(1690846737.958560) can0 020#F0FF
(1690846737.958711) can0 021#F04D00
(1690846737.961049) can0 0C9#AA8705FA000000
(1690846737.963672) can0 062#BE00EA
(1690846737.969216) can0 0D0#DC78050000D80E00
(1690846737.969861) can0 023#B40200
(1690846737.974321) can0 0CC#E33A0F000000002B
(1690846737.981914) can0 0D6#FDF2010402DE01
(1690846737.982089) can0 0D7#FE000000000000
(1690846737.983406) can0 01F#F002EA00
(1690846737.983505) can0 020#F0FF
(1690846737.983657) can0 021#F04D00
(1690846737.990301) can0 062#BE00EA
(1690846738.005825) can0 025#C8FF00
(1690846738.008400) can0 0CC#E33A0F000000002E
(1690846738.008506) can0 021#F04D00
(1690846738.008642) can0 020#F0FF
(1690846738.008808) can0 01F#F002EA00
(1690846738.016843) can0 062#BE00EA
(1690846738.024873) can0 029#F000
(1690846738.032006) can0 0D6#FD1A023102FC01
(1690846738.032180) can0 0D7#FE000000000000
(1690846738.033332) can0 01F#F002EA01
(1690846738.033454) can0 020#F0FF
(1690846738.033608) can0 021#F04D00
(1690846738.036438) can0 0CD#E4CF0052055F0020
(1690846738.042119) can0 0CC#E33A0F000000002F
(1690846738.043436) can0 062#BE00EA
(1690846738.058168) can0 01F#F002EA01
(1690846738.058241) can0 020#F0FF
(1690846738.058399) can0 021#F04D00
(1690846738.063538) can0 063#BE0100
(1690846738.069133) can0 0C9#AA8705FA000C00
(1690846738.070051) can0 062#BE0000
(1690846738.074178) can0 0CC#E33A0F0000000031
(1690846738.082076) can0 0D6#FD29026E02E601
(1690846738.082267) can0 0D7#FE000000000000
(1690846738.083206) can0 01F#F002EA01
(1690846738.083321) can0 020#F0FF
(1690846738.083470) can0 021#F04D00
(1690846738.096732) can0 062#BE00EA
(1690846738.097300) can0 025#C8FF00
(1690846738.108012) can0 01E#F00200
(1690846738.108189) can0 0CC#E33B0F0000000033
(1690846738.108355) can0 01F#F002EA02
(1690846738.108505) can0 021#F04D00
(1690846738.108643) can0 020#F0FF
(1690846738.123354) can0 062#BE00EA
(1690846738.132151) can0 0D6#FD4D025F022A02
(1690846738.132341) can0 0D7#FE000000000000
(1690846738.133151) can0 01F#F002EA00
(1690846738.133267) can0 020#F0FF
(1690846738.133415) can0 021#F04D00
(1690846738.140645) can0 06D#DD021F
(1690846738.142018) can0 0CC#E33A0F0000000035
(1690846738.149966) can0 062#BE00EA
(1690846738.153010) can0 06D#DC021F
(1690846738.158059) can0 01F#F002EA00
(1690846738.158139) can0 020#F0FF
(1690846738.158308) can0 021#F04D00
(1690846738.170146) can0 0CD#E4CF0052055F0020
(1690846738.173132) can0 0D0#DD780500003C0F00
(1690846738.173943) can0 0CC#E33A0F0000000038
(1690846738.176589) can0 062#BE00EA
(1690846738.177269) can0 0C9#AA8705FA000C00
(1690846738.177845) can0 023#B40200
(1690846738.182224) can0 0D6#FD14027D02B001
(1690846738.182418) can0 0D7#FE000000000000
(1690846738.182989) can0 01F#F002EA00
(1690846738.183112) can0 020#F0FF
(1690846738.183264) can0 021#F04D00
(1690846738.185502) can0 0D0#DC78050000D80E00
(1690846738.188854) can0 025#C8FF00
(1690846738.203223) can0 062#BE0000
(1690846738.208024) can0 01F#F002EA00
(1690846738.208100) can0 020#F0FF
(1690846738.208258) can0 021#F04D00
(1690846738.208502) can0 0CC#E33A0F0000000039
(1690846738.229845) can0 062#BE00EA
(1690846738.232310) can0 0D6#FDD6011B028B01
(1690846738.232493) can0 0D7#FE000000000000
(1690846738.232933) can0 01F#F002E001
(1690846738.233060) can0 020#F0FF
(1690846738.233211) can0 021#F04D00
(1690846738.242000) can0 0CC#E33A0F000000003B
(1690846738.256484) can0 062#BE00E0
(1690846738.256565) can0 024#BE00
(1690846738.257912) can0 01F#F002EA00
(1690846738.258010) can0 020#F0FF
(1690846738.258166) can0 021#F04D00
(1690846738.264571) can0 022#B400
(1690846738.269398) can0 022#B4FF
(1690846738.273950) can0 0CC#E33A0F000000003D
(1690846738.276512) can0 063#BE0200
(1690846738.277786) can0 022#B4FF
(1690846738.278025) can0 0D8#C86F0E73017901
(1690846738.278326) can0 0D9#C8FFFFFF030000
(1690846738.278476) can0 025#C8FF00
(1690846738.282393) can0 0D6#FD0A021B02F501
(1690846738.282575) can0 0D7#FE000000000000
(1690846738.282788) can0 01F#F002EA00
(1690846738.282920) can0 029#F000
(1690846738.283057) can0 020#F0FF
(1690846738.283209) can0 021#F04D00
(1690846738.286033) can0 022#B4FF
(1690846738.288278) can0 0C9#AA8705FA000C00
(1690846738.289820) can0 062#BE00EA
(1690846738.294358) can0 022#B4FF
(1690846738.302677) can0 022#B4FF
(1690846738.303758) can0 0CD#E4CF0052055F0020
(1690846738.307761) can0 01F#F002EA00
(1690846738.307867) can0 020#F0FF
(1690846738.308016) can0 021#F04D00
(1690846738.308257) can0 0CC#E33A0F000000003F
(1690846738.310987) can0 022#B4FF
(1690846738.316066) can0 01E#F00200
(1690846738.316424) can0 062#BE0000
(1690846738.319377) can0 022#B4FF
(1690846738.327625) can0 022#B4FF
(1690846738.332479) can0 0D6#FD1D024102FC01
(1690846738.332666) can0 0D7#FE000000000000
(1690846738.332794) can0 020#F0FF
(1690846738.332944) can0 021#F04D00
(1690846738.333112) can0 01F#F002EA00
(1690846738.335946) can0 022#B4FF
(1690846738.341697) can0 0CC#E33B0F0000000042
(1690846738.343139) can0 062#BE00EA
(1690846738.344324) can0 022#B4FF
(1690846738.352603) can0 022#B4FF
(1690846738.357718) can0 01F#F002EA00
(1690846738.357794) can0 020#F0FF
(1690846738.357938) can0 021#F04D00
(1690846738.360923) can0 022#B4FF
(1690846738.367753) can0 025#C8FF00
(1690846738.369226) can0 022#B4FF
(1690846738.369678) can0 062#BE00EA
(1690846738.373689) can0 0CC#E33B0F0000000043
(1690846738.377564) can0 022#B4FF
(1690846738.382566) can0 0D6#FD03022A02D601
(1690846738.382676) can0 01F#F002EA00
(1690846738.382828) can0 021#F04D00
(1690846738.382966) can0 020#F0FF
(1690846738.385898) can0 023#B40200
(1690846738.385976) can0 022#B4FF
(1690846738.389636) can0 0D0#DD780500003C0F00
(1690846738.393800) can0 0C9#AA8705FA000000
(1690846738.394158) can0 022#B4FF
(1690846738.396341) can0 062#BE00EA
(1690846738.402033) can0 0D0#DC78050000D80E00
(1690846738.402463) can0 022#B4FF
(1690846738.407681) can0 0CC#E33A0F0000000045
(1690846738.407759) can0 020#F0FF
(1690846738.407921) can0 021#F04D00
(1690846738.408083) can0 01F#F002EA00
(1690846738.410840) can0 022#B4FF
(1690846738.419159) can0 022#B4FF
(1690846738.422996) can0 062#BE00EA
(1690846738.427484) can0 022#B4FF
(1690846738.432642) can0 0D6#FD18023102DE01
(1690846738.432724) can0 020#F0FF
(1690846738.432879) can0 021#F04D00
(1690846738.433046) can0 01F#F002EA02
(1690846738.435836) can0 0CD#E4CF0052055F001F
(1690846738.435919) can0 022#B4FF
(1690846738.441488) can0 0CC#E33A0F0000000047
(1690846738.444119) can0 022#B4FF
(1690846738.449595) can0 062#BE00EA
(1690846738.452431) can0 022#B4FF
(1690846738.455113) can0 025#C8FF00
(1690846738.457511) can0 01F#F002EA02
(1690846738.457589) can0 020#F0FF
(1690846738.457749) can0 021#F04D00
(1690846738.460759) can0 022#B4FF
(1690846738.469104) can0 022#B4FF
(1690846738.473321) can0 0CC#E30100
(1690846738.473563) can0 0CC#E33A0F0000000049
(1690846738.476209) can0 062#BE00EA
(1690846738.477482) can0 022#B4FF
(1690846738.482568) can0 01F#F002EA02
(1690846738.482693) can0 020#F0FF
(1690846738.482754) can0 021#F04D00
(1690846738.482920) can0 063#BE0100
(1690846738.485785) can0 022#B4FF
(1690846738.494034) can0 022#B4FF
(1690846738.501792) can0 0C9#AA8705FA000C00
(1690846738.502312) can0 022#B4FF
(1690846738.502797) can0 062#BE0000
(1690846738.507460) can0 01F#F002EA02
(1690846738.507540) can0 020#F0FF
(1690846738.507686) can0 021#F04D00
(1690846738.507919) can0 0CC#E33B0F000000004A
(1690846738.510656) can0 022#B4FF
(1690846738.519000) can0 022#B4FF
(1690846738.523975) can0 01E#F00200
(1690846738.527299) can0 022#B4FF
(1690846738.529452) can0 062#BE0000
(1690846738.532413) can0 01F#F002EA01
(1690846738.532483) can0 020#F0FF
(1690846738.532654) can0 021#F04D00
(1690846738.532872) can0 0D6#FD15024802ED01
(1690846738.533105) can0 0D7#FE000000000000
(1690846738.535615) can0 022#B4FF
(1690846738.540616) can0 029#F000
(1690846738.541290) can0 0CC#E33A0F000000004D
(1690846738.543925) can0 022#B4FF
(1690846738.546621) can0 025#C8FF00
(1690846738.552265) can0 022#B4FF
(1690846738.556096) can0 062#BE00EA
(1690846738.557330) can0 01F#F002EA01
(1690846738.557446) can0 020#F0FF
(1690846738.557599) can0 021#F04D00
(1690846738.560585) can0 022#B4FF
(1690846738.568910) can0 022#B4FF
(1690846738.569451) can0 0CD#E4CF0052055F001F
(1690846738.573336) can0 0CC#E33B0F000000004F
(1690846738.576431) can0 064#AA0200
(1690846738.577176) can0 022#B4FF
(1690846738.582279) can0 01F#F002EA01
(1690846738.582356) can0 020#F0FF
(1690846738.582519) can0 021#F04D00
(1690846738.582682) can0 062#BE00EA
(1690846738.582906) can0 0D6#FD0F022202ED01
(1690846738.583138) can0 0D7#FE000000000000
(1690846738.585535) can0 022#B4FF
(1690846738.593883) can0 023#B40200
(1690846738.593961) can0 022#B4FF
(1690846738.602191) can0 022#B4FF
(1690846738.605837) can0 0D0#DD780500003C0F00
(1690846738.607198) can0 01F#F002EA01
(1690846738.607313) can0 020#F0FF
(1690846738.607469) can0 021#F04D00
(1690846738.607714) can0 0CC#E33A0F0000000051
(1690846738.609364) can0 062#BE00EA
(1690846738.610026) can0 0C9#AA8705FA000C00
(1690846738.610448) can0 022#B4FF
(1690846738.618243) can0 0D0#DC78050000D80E00
(1690846738.618775) can0 022#B4FF
(1690846738.627147) can0 022#B4FF
(1690846738.632221) can0 01F#F002EA00
(1690846738.632296) can0 020#F0FF
(1690846738.632465) can0 021#F04D00
(1690846738.632923) can0 0D6#FDFB012A02DE01
(1690846738.633148) can0 0D7#FE000000000000
(1690846738.633969) can0 025#C8FF00
(1690846738.635429) can0 022#B4FF
(1690846738.635934) can0 062#BE00EA
(1690846738.641273) can0 0CC#E33A0F0000000053
(1690846738.643772) can0 022#B4FF
(1690846738.652105) can0 022#B4FF
(1690846738.657188) can0 01F#F002EA01
(1690846738.657263) can0 020#F0FF
(1690846738.657419) can0 021#F04D00
(1690846738.660417) can0 022#B4FF
(1690846738.662606) can0 062#BE00EA
(1690846738.668750) can0 022#B4FF
(1690846738.669111) can0 0D8#C8790E73017901
(1690846738.669397) can0 0D9#C8FFFFFF030000
(1690846738.673317) can0 0CC#E33A0F0000000054
(1690846738.677060) can0 022#B4FF
(1690846738.682097) can0 01F#F002EA01
(1690846738.682170) can0 020#F0FF
(1690846738.682333) can0 021#F04D00
(1690846738.683011) can0 0D6#FD1B0257020402
(1690846738.683230) can0 0D7#FE000000000000
(1690846738.689242) can0 063#BE0100
(1690846738.689357) can0 062#BE0000
(1690846738.703279) can0 0CD#E4CF0052055F001F
(1690846738.707068) can0 01F#F002EA01
(1690846738.707140) can0 020#F0FF
(1690846738.707312) can0 021#F04D00
(1690846738.707548) can0 0CC#E33A0F0000000057
(1690846738.715787) can0 062#BE00EA
(1690846738.718111) can0 0C9#AA8705FA000000
(1690846738.725545) can0 025#C8FF00
(1690846738.731908) can0 01E#F00200
(1690846738.732033) can0 01F#F002EA01
(1690846738.732164) can0 020#F0FF
(1690846738.732321) can0 021#F04D00
(1690846738.733086) can0 0D6#FD1302A302F501
(1690846738.733302) can0 0D7#FE000000000000
(1690846738.741029) can0 0CC#E33A0F0000000059
(1690846738.742483) can0 062#BE00EA
(1690846738.756868) can0 01F#F002EA01
(1690846738.756945) can0 020#F0FF
(1690846738.757099) can0 021#F04D00
(1690846738.769039) can0 062#BE00EA
(1690846738.773044) can0 0CC#E33A0F000000005B
(1690846738.781825) can0 01F#F002EA01
(1690846738.781906) can0 020#F0FF
(1690846738.782065) can0 021#F04D00
(1690846738.783182) can0 0D6#FD12022202F501
(1690846738.783391) can0 0D7#FE000000000000
(1690846738.795664) can0 062#BE00EA
(1690846738.798438) can0 029#F000
(1690846738.801871) can0 023#B40200
(1690846738.806864) can0 01F#F002EA01
(1690846738.806938) can0 020#F0FF
(1690846738.807109) can0 021#F04D00
(1690846738.807341) can0 0CC#E33A0F000000005D
(1690846738.817063) can0 025#C8FF00
(1690846738.822278) can0 062#BE00EA
(1690846738.822463) can0 0D0#DD780500003C0F00
(1690846738.826306) can0 0C9#AA8705FA000C00
(1690846738.831850) can0 01F#F002EA01
(1690846738.831926) can0 020#F0FF
(1690846738.832081) can0 021#F04D00
(1690846738.833260) can0 0D6#FD2B024802E601
(1690846738.833463) can0 0D7#FE000000000000
(1690846738.834780) can0 0D0#DC78050000D80E00
(1690846738.835145) can0 0CD#E4CE0052055F0020
(1690846738.840820) can0 0CC#E33B0F000000005E
(1690846738.848907) can0 062#BE00EA
(1690846738.856770) can0 01F#F002EA01
(1690846738.856848) can0 020#F0FF
(1690846738.857004) can0 021#F04D00
(1690846738.872880) can0 0CC#E33B0F000000005D
(1690846738.875520) can0 062#BE00EA
(1690846738.881727) can0 01F#F002EA01
(1690846738.881804) can0 020#F0FF
(1690846738.881961) can0 021#F04D00
(1690846738.883352) can0 0D6#FD3A0266020B02
(1690846738.883547) can0 0D7#FE000000000000
(1690846738.895505) can0 063#BE0100
(1690846738.902160) can0 062#BE0000
(1690846738.904407) can0 025#C8FF00
(1690846738.906677) can0 01F#F002EA01
(1690846738.906748) can0 020#F0FF
(1690846738.906915) can0 021#F04D00
(1690846738.907151) can0 0CC#E33B0F000000005B
(1690846738.928783) can0 062#BE00EA
(1690846738.931624) can0 01F#F002EA01
(1690846738.931720) can0 020#F0FF
(1690846738.931864) can0 021#F04D00
(1690846738.933446) can0 0D6#FDD6010B02A901
(1690846738.933633) can0 0D7#FE000000000000
(1690846738.934522) can0 0C9#AA8705FA000C00
(1690846738.939893) can0 01E#F00200
(1690846738.940720) can0 0CC#E33A0F0000000059
(1690846738.955416) can0 062#BE0000
(1690846738.956603) can0 01F#F002EA01
(1690846738.956709) can0 020#F0FF
(1690846738.956858) can0 021#F04D00
(1690846738.968899) can0 0CD#E4CF0052055F0020
(1690846738.972690) can0 0CC#E33B0F0000000057
(1690846738.981451) can0 01F#F002EA01
(1690846738.981527) can0 020#F0FF
(1690846738.981676) can0 021#F04D00
(1690846738.982083) can0 062#BE00EA
(1690846738.983504) can0 0D6#FD08022202ED01
(1690846738.983716) can0 0D7#FE000000000000
(1690846738.995947) can0 025#C8FF00
(1690846739.006442) can0 01F#F002EA00
(1690846739.006520) can0 020#F0FF
(1690846739.006672) can0 021#F04D00
(1690846739.006912) can0 0CC#E33A0F0000000056
(1690846739.008725) can0 062#BE00EA
(1690846739.009848) can0 023#B40200
(1690846739.031360) can0 01F#F002EA00
(1690846739.031438) can0 020#F0FF
(1690846739.031583) can0 021#F04D00
(1690846739.033602) can0 0D6#FDF9011B02D601
(1690846739.033802) can0 0D7#FE000000000000
(1690846739.035366) can0 062#BE00EA
(1690846739.038656) can0 0D0#DD780500003C0F00
(1690846739.040663) can0 0CC#E33A0F0000000053
(1690846739.042620) can0 0C9#AA8705FA000000
(1690846739.051079) can0 0D0#DC78050000D80E00
(1690846739.056045) can0 0D8#C86F0E73017B01
(1690846739.056288) can0 0D9#C8FFFFFF030000
(1690846739.056450) can0 01F#F002EA00
(1690846739.056580) can0 029#F000
(1690846739.056717) can0 020#F0FF
(1690846739.062013) can0 062#BE00EA
(1690846739.072682) can0 0CC#E33B0F0000000051
(1690846739.081387) can0 01F#F002EA00
(1690846739.081468) can0 020#F0FF
(1690846739.081618) can0 021#F04D00
(1690846739.083307) can0 025#C8FF00
(1690846739.083662) can0 0D6#FD26027602E601
(1690846739.083880) can0 0D7#FE000000000000
(1690846739.088548) can0 062#BE00EA
(1690846739.101844) can0 063#BE0100
(1690846739.102508) can0 0CD#E4CF0051055F001F
(1690846739.106313) can0 01F#F002EA00
(1690846739.106391) can0 020#F0FF
(1690846739.106547) can0 021#F04D00
(1690846739.106786) can0 0CC#E33A0F000000004F
(1690846739.115162) can0 062#BE00EA
(1690846739.131177) can0 01F#F002EA00
(1690846739.131260) can0 020#F0FF
(1690846739.131402) can0 021#F04D00
(1690846739.133775) can0 0D6#FDFA011B02CF01
(1690846739.133961) can0 0D7#FE000000000000
(1690846739.140448) can0 0CC#E33A0F000000004D
(1690846739.141774) can0 062#BE00EA
(1690846739.147840) can0 01E#F00200
(1690846739.150871) can0 0C9#AA8705FA000C00
(1690846739.156239) can0 01F#F002EA00
(1690846739.156317) can0 020#F0FF
(1690846739.156478) can0 021#F04D00
(1690846739.168407) can0 062#BE00EA
(1690846739.172386) can0 0CC#E33A0F000000004C
(1690846739.174833) can0 025#C8FF00
(1690846739.181169) can0 01F#F002EA00
(1690846739.181244) can0 020#F0FF
(1690846739.181410) can0 021#F04D00
(1690846739.183847) can0 0D6#FD42026E021302
(1690846739.184039) can0 0D7#FE000000000000
(1690846739.195048) can0 062#BE00EA
(1690846739.206039) can0 01F#F002EA00
(1690846739.206118) can0 020#F0FF
(1690846739.206269) can0 021#F04D00
(1690846739.206508) can0 0CC#E33A0F0000000049
(1690846739.217865) can0 023#B40200
(1690846739.221754) can0 062#BE0000
(1690846739.230984) can0 01F#F002EA00
(1690846739.231068) can0 020#F0FF
(1690846739.231221) can0 021#F04D00
(1690846739.233925) can0 0D6#FD19022A020402
(1690846739.234126) can0 0D7#FE000000000000
(1690846739.234500) can0 0CD#E4CF0052055F001F
(1690846739.240210) can0 0CC#E33A0F0000000047
(1690846739.248302) can0 062#BE00EA
(1690846739.255149) can0 0D0#DD780500003C0F00
(1690846739.255984) can0 01F#F002EA00
(1690846739.256102) can0 020#F0FF
(1690846739.256261) can0 021#F04D00
(1690846739.259080) can0 0C9#AA8705FA001900
(1690846739.262187) can0 025#C8FF00
(1690846739.267584) can0 0D0#DC78050000D80E00
(1690846739.272204) can0 0CC#E33A0F0000000045
(1690846739.274919) can0 062#BE00EA
(1690846739.280969) can0 01F#F002EA00
(1690846739.281042) can0 020#F0FF
(1690846739.281212) can0 021#F04D00
(1690846739.284012) can0 0D6#FDF5012202C701
(1690846739.284209) can0 0D7#FE000000000000
(1690846739.301558) can0 062#BE00EA
(1690846739.305937) can0 01F#F002EA00
(1690846739.306014) can0 020#F0FF
(1690846739.306171) can0 021#F04D00
(1690846739.306405) can0 0CC#E33A0F0000000043
(1690846739.308272) can0 063#BE0100
(1690846739.314183) can0 029#F000
(1690846739.328160) can0 062#BE0000
(1690846739.330891) can0 01F#F002EA00
(1690846739.330969) can0 020#F0FF
(1690846739.331126) can0 021#F04D00
(1690846739.334107) can0 0D6#FDFC011302DE01
(1690846739.334284) can0 0D7#FE000000000000
(1690846739.340021) can0 0CC#E33A0F0000000042
(1690846739.353735) can0 025#C8FF00
(1690846739.354770) can0 062#BE00EA
(1690846739.355733) can0 01E#F00200
(1690846739.355873) can0 01F#F002EA00
(1690846739.356011) can0 020#F0FF
(1690846739.356160) can0 021#F04D00
(1690846739.367213) can0 0C9#AA8705FC000000
(1690846739.368229) can0 0CD#E4CF0052055F001F
(1690846739.372054) can0 0CC#E33B0F000000003F
(1690846739.380706) can0 01F#F002EA00
(1690846739.380779) can0 020#F0FF
(1690846739.380944) can0 021#F04D00
(1690846739.381482) can0 062#BE00EA
(1690846739.382806) can0 075#C80200
(1690846739.384135) can0 0D6#FD08023102CF01
(1690846739.384357) can0 0D7#FE000000000000
(1690846739.405699) can0 01F#F002EA00
(1690846739.405773) can0 020#F0FF
(1690846739.405925) can0 021#F04D00
(1690846739.406260) can0 0CC#E33B0F000000003E
